!Keysight Technologies N9915A: A.10.33
!Date: Friday, 08 May 2020 14:28:43
!Timezone: (UTC+08:00) Perth
!Model: N9915A
!Serial: MY53102697
!GPS Latitude: 
!GPS Longitude: 
!GPS TimeStamp: 0001-01-01 00:00:00Z
!GPS Seconds Since Last Read: 0
!CHECKSUM:1941627810
!Correction: S11(ON U?)S21(ON U?)S12(ON U?)S22(ON U?)
!S2P File: Measurements:S11,S21,S12,S22:
# Hz S DB R 50
900000000	-5.21312112374954	-159.430466543314	-23.5453266729233	-130.530907628736	-23.4604930232937	-131.425560740141	-5.48869445769075	-37.6662279214872	
908100000	-5.21934196170245	-5.3495894282412	-23.4883866855391	104.824848224357	-23.4021084814271	104.571384246835	-5.5722355921319	-38.0337751216395	
916200000	-5.42293433886692	147.084234679976	-23.4087491505157	-18.22797947916	-23.322839024163	-18.5559356927287	-5.67164715978988	-38.6144248323212	
924300000	-5.5509886808945	-57.8016422547529	-23.4279446990995	-140.361248937845	-23.3373771612881	-140.607177635086	-5.76667871038271	-39.1175697024854	
932400000	-5.73685047599218	95.0103512046269	-23.4053355535435	98.7001033285251	-23.3215202438622	98.4985354421073	-5.87827588617933	-40.005023712831	
940500000	-5.74434881925959	-110.415120491014	-23.4953389458614	-23.5051496404699	-23.4030014196399	-23.5103184242442	-6.00020396494667	-40.5538094065204	
948600000	-5.82189353244079	20.1722099521243	-23.548270008448	-142.379682522569	-23.4594712668789	-142.370204138614	-6.13786374868942	-41.3540415937532	
956700000	-6.12316134113729	108.39434549145	-23.5676308402036	122.767714320287	-23.4817084833021	122.760109931401	-6.27324466026773	-42.022736207023	
964800000	-6.26647788015582	-148.951005708707	-23.5291536519434	24.9223679889237	-23.4447414770772	24.9694593069792	-6.41483205632797	-42.7170387478686	
972900000	-6.11942297793328	-49.5018931588208	-23.4887405260801	-66.1480422003461	-23.3884247008186	-66.0275502390394	-6.50465208953979	-43.4021789972966	
981000000	-6.12840788406166	34.9332332394185	-23.4725859987664	-149.962383360699	-23.3698548465915	-149.876805837165	-6.59340718956644	-44.2768768058013	
989100000	-6.30741037106095	108.111471810158	-23.4011411236193	133.332362625897	-23.3117821475512	133.515831897094	-6.70128457861041	-45.0560287688951	
997200000	-6.4347084369044	169.711872486829	-23.3053381345002	62.9316191173815	-23.2293852305146	63.1095496029077	-6.78341641065049	-45.7525828680175	
1005300000	-6.27102643964609	-133.93119939777	-23.2421887507226	-0.234223842291044	-23.1523785989377	-0.0583737879552473	-6.8555825783829	-46.5862841635139	
1013400000	-6.23282925372341	-91.4577059982736	-23.2132393713043	-56.1888899506903	-23.1243698152582	-56.0547873939439	-6.91624807636011	-47.3643205176802	
1021500000	-6.3821975707706	-59.2461704979589	-23.087379578697	-105.709517621575	-22.9994333666751	-105.57388520042	-6.99892565532945	-48.1781904027439	
1029600000	-6.57344611024837	-38.5945549470752	-22.9423551969848	-148.816741433776	-22.8600416410948	-148.661729317898	-7.06988491141707	-48.9269359584358	
1037700000	-6.390809909187	-24.6621568227876	-22.8951699252804	175.072464452926	-22.8104527143292	175.15354687633	-7.11823177683111	-49.947735671119	
1045800000	-6.29790290860028	-23.8788914992125	-22.8284415101059	145.932782800048	-22.7466314066341	146.045721163746	-7.20475897496691	-50.9741369451997	
1053900000	-6.31167633417884	-32.6139682326661	-22.8455123105584	123.677018097615	-22.7518273443353	123.759915495214	-7.26644621481558	-51.8435276184709	
1062000000	-6.49919911804817	-34.0790659290224	-22.7201100466394	105.799457118707	-22.6406089227667	105.871469004235	-7.32494033968026	-52.6821427719445	
1070100000	-6.50938266389795	-33.2566834314364	-22.7624108491579	87.8554038949571	-22.6849215138959	87.9563323710548	-7.3424557114567	-53.5969649668094	
1078200000	-6.24709840156323	-34.4852981812747	-22.7920547774681	70.3559782503152	-22.7182697350746	70.4126290830011	-7.36878047301505	-54.4820909549437	
1086300000	-6.26305177405907	-34.1079748081056	-22.8486923967221	52.7061483748895	-22.7759192670789	52.7429644898725	-7.38164465978262	-55.3692994821395	
1094400000	-6.51332716553534	-42.4234764882836	-22.9457989663224	35.5236548619689	-22.8778394672461	35.501470240275	-7.40711603519063	-56.2817142233479	
1102500000	-6.55852474257786	-45.3414755949146	-23.0205379716768	18.6454472676252	-22.9459535477172	18.5816588693815	-7.42822109152213	-57.1365477277194	
1110600000	-6.35948475009922	-47.0652074999928	-23.1394369779047	2.00541281099967	-23.0579610431956	1.89564061581105	-7.44605533058268	-58.1122649465411	
1118700000	-6.30151337621823	-46.6638782501848	-23.1493098223566	-14.1238052453235	-23.0655659516805	-14.2074163061653	-7.49307130874698	-59.0766635414824	
1126800000	-6.49495075506158	-53.2791160409686	-23.1945774958742	-30.6898723632426	-23.1224613679386	-30.7646700328201	-7.50616957971203	-59.8095495659453	
1134900000	-6.53047981141105	-55.7968487770204	-23.1388507078315	-46.8710836970457	-23.0701728489837	-46.8637195918329	-7.4992377811796	-60.8925686992004	
1143000000	-6.27627823045897	-58.2774944625208	-23.1829896318442	-63.3582549763604	-23.11092889775	-63.3106616607739	-7.4918623438587	-61.9683654155926	
1151100000	-6.16480044132709	-58.5196400767571	-23.2375157365337	-78.9912181256641	-23.1601150937776	-79.0000913856181	-7.46767813444226	-63.0483210722556	
1159200000	-6.33259891241731	-63.8615831368442	-23.1966298946911	-94.6742730359191	-23.1262723131715	-94.725326625212	-7.45122879179425	-64.223853031995	
1167300000	-6.42844075881668	-66.2623334172072	-23.0776096677041	-110.555518806207	-23.0138547144396	-110.660221700258	-7.39787273852699	-65.2350363769701	
1175400000	-6.23184139139354	-68.9235637140176	-22.9359941821214	-126.381780387676	-22.8789490950717	-126.444523100362	-7.35007622666758	-66.5178555477414	
1183500000	-6.10144042385889	-69.3617880767455	-22.88205316438	-142.337956340541	-22.8221324644051	-142.356603864848	-7.28577366580142	-67.7418033972831	
1191600000	-6.17888544809346	-73.2861675555054	-22.6750778246213	-158.515837237164	-22.6141837335537	-158.595821024095	-7.24712221769797	-69.0365897529789	
1199700000	-6.24878002058472	-76.6383594628664	-22.4803500869882	-175.128049576918	-22.4180988280411	-175.177807786078	-7.21942740340529	-70.4912026910097	
1207800000	-6.08831878807101	-79.4733231041589	-22.3331481755516	168.17021879876	-22.2723095732569	168.127927027845	-7.18784373665594	-71.8416462622735	
1215900000	-5.88226269729626	-80.569655656314	-22.2168460770769	151.397512948294	-22.157348624169	151.373973275	-7.15613455745622	-73.3046082095686	
1224000000	-5.89618210269525	-83.3392287036678	-22.0642954540483	134.762296861114	-22.008653195099	134.775947064842	-7.12384352742977	-74.7304012520266	
1232100000	-5.97444090416057	-87.9682451714432	-21.914417600098	117.317597931951	-21.8543648391846	117.337754390089	-7.06857989180042	-76.2563444214412	
1240200000	-5.90216573525735	-91.405859494971	-21.8912559243481	99.8522127940446	-21.8294510232762	99.8955601400414	-6.98364052758853	-78.0873131759742	
1248300000	-5.74087680349536	-93.1331203663107	-21.8994069216876	82.7836462588849	-21.8252499397606	82.8335397939501	-6.92755293177254	-80.0797751166464	
1256400000	-5.76923864546253	-97.0585345040439	-21.9123144415329	65.660264421815	-21.8306230811791	65.659968999899	-6.88961815908852	-82.0377265743732	
1264500000	-5.91260774790426	-98.9497206168358	-22.0105912937952	48.9208519371957	-21.9241239878979	48.8719900040996	-6.85163756189548	-83.9950741430204	
1272600000	-5.86443585057689	-102.290850157346	-22.1229273893166	32.3611054813433	-22.0294249960404	32.3534708199162	-6.83680775382658	-85.9698828092372	
1280700000	-5.67117260228413	-104.542052576819	-22.2573593462268	16.3057488219399	-22.1691124372377	16.3616592951727	-6.81877886748464	-87.8711212767609	
1288800000	-5.67230996041008	-105.291589058058	-22.330695922409	1.1200779595651	-22.2225871430424	1.17151354999034	-6.82700376712126	-89.9179293272138	
1296900000	-5.83472879101576	-107.304109834427	-22.3598878727564	-14.381041233559	-22.2542838031829	-14.3372631917073	-6.84773393351527	-91.8706639227074	
1305000000	-5.86132638742289	-110.795956742133	-22.3003065361931	-29.8795253836489	-22.1927315180376	-29.9061379342879	-6.87153853655084	-93.8734809386056	
1313100000	-5.68201274231279	-113.471421093295	-22.2893489746979	-45.8906776947837	-22.1868448498459	-45.8675076446284	-6.90243519153226	-95.9843349434141	
1321200000	-5.73813888803762	-113.133670642143	-22.3143457587692	-61.2643286088486	-22.2024996879871	-61.1541717679475	-6.90998911081346	-98.0115512291738	
1329300000	-5.91634966325781	-114.852685503401	-22.3171702291026	-76.4910898125937	-22.1953895774018	-76.4190966133196	-6.92439643381755	-100.41300078657	
1337400000	-6.01937284291062	-118.304985783158	-22.3234065493429	-91.7626133758258	-22.1959436077249	-91.6787900232099	-6.96765009669546	-102.898500917256	
1345500000	-5.92316879032294	-118.7340792047	-22.285328658231	-106.97619213923	-22.1667046161686	-106.884226635162	-7.03738683771727	-105.310009040661	
1353600000	-5.97119474205305	-117.550133263528	-22.2118939921997	-121.818021854879	-22.0928861986773	-121.661796968186	-7.09788191723494	-107.638322976617	
1361700000	-6.09708660213758	-126.195829977485	-22.041159315182	-136.647327579658	-21.9126625110643	-136.498536960124	-7.19024476351573	-109.790240856809	
1369800000	-6.26526897344699	-129.574993817831	-21.8213927724617	-151.934643434157	-21.6986651725968	-151.699581688489	-7.26943194599981	-111.962411949005	
1377900000	-6.20967243728579	-129.192667031242	-21.6770052596551	-167.50185194403	-21.549257869773	-167.292962732034	-7.36036576228886	-114.208873717872	
1386000000	-6.24989727608292	-130.520304386648	-21.4782601412415	177.189768874273	-21.3619952614051	177.420723406704	-7.47343166048389	-116.464468011799	
1394100000	-6.43501769844692	-139.98891068178	-21.210416504676	161.397916667338	-21.1026172102604	161.535274616693	-7.60298708390019	-118.784446850338	
1402200000	-6.66765681774687	-142.96050947302	-20.9780320052551	141.025082609655	-20.8589222215446	141.104397640819	-7.77594590074594	-121.14327754524	
1410300000	-6.6358249321297	-146.205320854784	-20.7913820657289	112.435533072942	-20.683453472874	112.533977746548	-7.94769537853206	-123.322355552223	
1418400000	-6.68443755303521	-147.572586810386	-20.6620544623559	84.0492117461533	-20.5599564695942	84.1929926341257	-8.10680336573821	-125.667485836556	
1426500000	-6.92966895681674	-148.812159461316	-20.5355763279992	55.9693521608352	-20.4355221898113	56.1768116305044	-8.30830401198148	-127.873678312014	
1434600000	-7.26808039533549	-151.616271798973	-20.3552780676482	27.9242155128811	-20.248322128256	28.1666222171343	-8.47783542495818	-129.919722240008	
1442700000	-7.19290521164247	-154.989576632046	-20.1360248411812	-0.46141287350531	-20.0353710643979	-0.360740105011644	-8.66014888289433	-132.212381939274	
1450800000	-7.24466118483171	-156.59402954036	-20.0186979772579	-29.0634131927537	-19.9231059060085	-28.901778705916	-8.86312612899926	-134.423260011783	
1458900000	-7.4680127319356	-157.383313864787	-19.8404864501501	-57.6019912163888	-19.7619389648332	-57.4004587915959	-9.10334414449949	-136.222799498571	
1467000000	-7.83216089013008	-159.994270776689	-19.7394198633817	-86.2456234935527	-19.6565515746149	-85.9964554319278	-9.31512495498714	-138.258711990095	
1475100000	-7.82918044636902	-162.968108039737	-19.617373813395	-114.569045831869	-19.541063308944	-114.419074038022	-9.59919335589681	-140.25405035971	
1483200000	-7.9784534303346	-157.609092749254	-19.6013491487295	-143.181313348807	-19.5368408643693	-143.02880183842	-9.90267748837694	-142.139499819318	
1491300000	-8.19100333295775	-157.827304117696	-19.5727208977057	-171.393255829205	-19.5156766659367	-171.265382873573	-10.2305201252249	-143.993977286478	
1499400000	-8.69953901867068	-160.353595981064	-19.4842253925377	160.597663315614	-19.4228999019101	160.74707486238	-10.5828485829683	-145.669739047512	
1507500000	-8.81631417922861	-163.289491302399	-19.3545557560676	132.384291576365	-19.2910393362439	132.521538862826	-10.9353342239448	-147.234659040804	
1515600000	-8.91588377653447	-156.534575896599	-19.312919608017	104.309396127027	-19.2608920550766	104.547825134509	-11.2694483183585	-148.606198204373	
1523700000	-9.17629937332706	-156.344806478441	-19.2187794296413	80.6569642366975	-19.1680369843618	80.8902264311732	-11.6144432759976	-149.948023047456	
1531800000	-9.77013804195845	-157.489744949818	-19.1178799915684	64.7499789173083	-19.0735839823915	64.9887999417537	-12.0049243577188	-151.057342925889	
1539900000	-9.93045749612885	-160.276080378293	-18.9673984794547	48.6127283509888	-18.9101189789992	48.8199436355533	-12.354417137523	-151.845430574585	
1548000000	-9.98938620624083	-161.69954913219	-18.8643872493679	32.2536470140564	-18.8065510311015	32.4163815448304	-12.7382629276295	-152.589430192575	
1556100000	-10.1247877988902	-151.309747432197	-18.7886058484093	16.3103475864236	-18.7303775355822	16.4070237408592	-13.1130709014487	-153.103680828012	
1564200000	-10.8136773540642	-151.348713615401	-18.737902458609	-0.250733526675921	-18.6761038557643	-0.0665539687053174	-13.5264642320257	-153.516355368441	
1572300000	-11.1651996022189	-153.860990303652	-18.607400508453	-16.4675872590721	-18.5533258067021	-16.278683667406	-13.9926965236226	-153.175772797302	
1580400000	-11.180142214172	-154.985583879215	-18.5010591621269	-32.9267061108829	-18.4467898376651	-32.8025381308082	-14.4392870810878	-152.614064202031	
1588500000	-11.2383804650421	-145.850916818639	-18.4309346325065	-49.3652727980643	-18.3824558761889	-49.2814197573258	-14.8586443959384	-151.488312901824	
1596600000	-11.8031267642779	-144.76447359235	-18.4248321796052	-65.8893306847708	-18.3825730298359	-65.7529562473504	-15.1748688413661	-150.169711474662	
1604700000	-12.1452473709131	-146.398386045673	-18.3480664385593	-81.8956675636666	-18.2988940875983	-81.7949814855732	-15.4334399741592	-148.890507340586	
1612800000	-12.1710343307756	-147.764423235743	-18.2446500829712	-98.1354943762616	-18.1914658419645	-98.0723360385179	-15.6980219504896	-147.921097581923	
1620900000	-12.1103214613738	-146.341108514041	-18.1661459895787	-114.673543492365	-18.1191908743809	-114.625549155244	-15.9635885401312	-146.402719908611	
1629000000	-12.4641673478859	-144.38585114227	-18.1481862192527	-131.25685146111	-18.1057091307561	-131.237481473616	-16.1678020348031	-144.506424251817	
1637100000	-12.9781832293053	-145.833218211266	-18.0919365071369	-147.843667382488	-18.0376381884104	-147.792646205829	-16.4109315589539	-142.785891990534	
1645200000	-12.9447911094908	-146.918703412202	-18.0468941386352	-164.623395466124	-17.9935902689786	-164.598812113931	-16.5493080442432	-139.853293798151	
1653300000	-12.7454077867271	-146.156902078128	-18.0616861525902	178.920561406624	-18.0053502159382	178.869074439403	-16.5436591305428	-137.58510850898	
1661400000	-12.8812039253348	-137.596492547032	-18.0859462443284	162.770335441427	-18.0278237002589	162.694512743634	-16.5606688184547	-135.273251710501	
1669500000	-13.3183172669694	-136.62080362799	-18.0705565544231	146.603303815201	-18.0122734165164	146.542579197328	-16.4868169776502	-133.016820327491	
1677600000	-13.3332567390866	-147.31841421087	-18.0541610088462	130.277348984775	-17.9957153604646	130.260086666417	-16.4247007725992	-130.877329945	
1685700000	-12.9810811036047	-147.255690494397	-18.055865454724	114.365439371004	-17.9995518046555	114.331894966264	-16.2997366114031	-128.76054649619	
1693800000	-12.8249179023811	-140.141919631259	-18.0113561409323	98.3530655896806	-17.951887788661	98.3043272032989	-16.1063778476104	-127.041707257536	
1701900000	-13.1660177130832	-139.173022695587	-18.0151257507253	82.4447046191291	-17.9542446884032	82.432830778819	-15.8050354355053	-125.477240680921	
1710000000	-13.1969741668502	-148.554238062648	-17.950160851444	66.4097193263139	-17.8838193700858	66.4232895768324	-15.4855896619061	-124.886334892699	
1718100000	-12.8891094420214	-149.522566568306	-17.8815988903511	50.1966988949351	-17.8099058013976	50.1699353804695	-15.2386611093087	-124.285579503638	
1726200000	-12.6314385836694	-144.108976526515	-17.8060785173389	33.7948761973235	-17.7364269801709	33.7247187317644	-14.9699573477698	-123.792977676969	
1734300000	-12.7912017537321	-142.603672645327	-17.8001001423949	17.3738375242035	-17.7365031623201	17.2638481467563	-14.6733035115693	-123.08459042108	
1742400000	-12.768528792043	-143.769077375966	-17.7863337918503	1.02271073030758	-17.7126666870365	0.872854078844583	-14.3508019419512	-122.718115924334	
1750500000	-12.5153043569463	-145.273950339097	-17.7895479306104	-15.20002714505	-17.7089221387579	-15.307171455032	-14.0275495955641	-122.554970973367	
1758600000	-12.0401803970108	-143.644419583911	-17.8103675324538	-31.3886927795596	-17.7334794708465	-31.5678904445778	-13.6548325145783	-122.402444154393	
1766700000	-12.1042839051644	-142.459781466778	-17.8115444767422	-47.2753456888054	-17.736174851092	-47.3780713015224	-13.3052994141929	-123.330753237785	
1774800000	-12.0920055727347	-143.611944760314	-17.8129540504842	-63.5585904720532	-17.73989768372	-63.6122405428733	-13.0148457636299	-123.970863790565	
1782900000	-11.9203010901723	-151.373324483241	-17.7647310590469	-79.8901683921871	-17.6994608849931	-79.933099059275	-12.7239078608966	-124.788728424541	
1791000000	-11.3632527409083	-152.198673802157	-17.7888495269518	-96.1247581138353	-17.7185526569299	-96.16212156377	-12.4395941436299	-125.923118169681	
1799100000	-11.2926627035566	-151.558295791628	-17.8201917791667	-112.580600988909	-17.7477209474883	-112.620991371962	-12.1620911934817	-127.231674654044	
1807200000	-11.3050808750227	-153.030002320321	-17.830519373172	-128.814903139841	-17.7626770266345	-128.864153934467	-11.8600381775698	-128.596378299694	
1815300000	-11.2011180503731	-159.913315946293	-17.8989149293061	-145.045471085372	-17.8189637558382	-145.109534699173	-11.5938361103915	-130.391138218637	
1823400000	-10.7609607049305	-161.501749388724	-17.9406965974787	-161.208907876916	-17.8581529256359	-161.334935462585	-11.3657202851506	-132.259269614316	
1831500000	-10.6203003198575	-161.225162975111	-18.0020610967873	-177.234002365094	-17.9293360120062	-177.352856687526	-11.1727225543644	-133.64127839426	
1839600000	-10.6412690049361	-162.684665824934	-18.0594106755139	166.889805579531	-17.9861397818392	166.790929656967	-10.9489725026285	-135.240741369565	
1847700000	-10.5675024046496	-168.51715467448	-18.1403544958802	150.898830834672	-18.066294471348	150.82922279779	-10.773291660287	-136.832308212726	
1855800000	-10.2309185776375	-171.069589828613	-18.1767786081389	135.07705586991	-18.097843603331	135.025353799215	-10.5952639507772	-138.346867598969	
1863900000	-10.0907482100128	-171.19454136457	-18.2269867483074	119.533680598524	-18.1584363666794	119.537972018321	-10.4101809119822	-140.109750147294	
1872000000	-10.1741207555359	-172.713645394323	-18.2041218077825	103.566753929245	-18.1357490701161	103.540874394065	-10.2713543728333	-142.124501480044	
1880100000	-10.1139040231486	-175.238352335555	-18.2153643029053	87.6605886905872	-18.1447453037286	87.6270970894896	-10.1182981049307	-144.010425160511	
1888200000	-9.8446639912626	-178.107628310382	-18.2550757841589	71.667019069583	-18.1863273137783	71.5920728491845	-9.98285351007157	-145.932503238546	
1896300000	-9.6160567932284	-178.614614502356	-18.2702747152101	55.653343762382	-18.2014361734638	55.5997942440729	-9.8472457971532	-148.042059602441	
1904400000	-9.63920263201486	179.702036332728	-18.3525563802774	39.8514619463617	-18.2783303593892	39.7938404295868	-9.71868918635097	-150.31284950046	
1912500000	-9.6176702570366	176.966000317943	-18.3810547012218	23.9782047077781	-18.3120093468591	23.8622370141591	-9.59685652717969	-152.449467393978	
