!Keysight Technologies N9915A: A.10.33
!Date: Friday, 08 May 2020 14:23:05
!Timezone: (UTC+08:00) Perth
!Model: N9915A
!Serial: MY53102697
!GPS Latitude: 
!GPS Longitude: 
!GPS TimeStamp: 0001-01-01 00:00:00Z
!GPS Seconds Since Last Read: 0
!CHECKSUM:0411523641
!Correction: S11(ON U?)S21(ON U?)S12(ON U?)S22(ON U?)
!S2P File: Measurements:S11,S21,S12,S22:
# Hz S DB R 50
900000000	-5.11224110883847	178.503933323118	-26.0452594139488	-60.3001945499009	-25.9136877707042	-59.4177515770151	-5.49023600325195	-38.0205922596306	
908100000	-5.17628419003997	-22.6632062640558	-26.1200013656063	163.040998364022	-26.0031836281609	163.1268785034	-5.55225327860283	-37.8725335007641	
916200000	-5.31291492296985	133.945624985443	-26.3421673011455	25.1465053143982	-26.2437162652912	24.7541199696615	-5.66603603891313	-38.7661551409179	
924300000	-5.2929870045102	-72.3101196870227	-26.630997792704	-116.163485542034	-26.5224482912751	-116.591994321902	-5.77905715314008	-39.3572031786198	
932400000	-5.439516523454	82.8507348340922	-26.7483283978385	108.212193122772	-26.6482535650306	107.636260592838	-5.89141027671525	-40.0896246358491	
940500000	-5.54117871851698	-124.300780890957	-26.8874008766965	-25.4626661727332	-26.7951075279915	-25.7843132724606	-6.01093724160112	-40.8118849025277	
948600000	-5.63139075824915	8.26496134626086	-27.472139377966	-155.985698232538	-27.3677844844403	-156.168640570453	-6.15386758581348	-41.427798214191	
956700000	-5.71530838588337	95.8705793620354	-28.5996276846923	94.7844376410709	-28.4365168173172	94.6714162878567	-6.27952901431045	-41.9638922143534	
964800000	-5.75910743942013	-159.652281841208	-29.1433309709748	-11.4401906282769	-28.9528718018185	-11.652803435233	-6.39232244696684	-42.662813682809	
972900000	-5.77867112709224	-58.6688085575221	-29.6408157438852	-110.50629436761	-29.4428180361116	-110.649355648791	-6.48995252194682	-43.4720870363679	
981000000	-5.92194976245518	24.150066891387	-29.8496014711161	157.359034416955	-29.664868020121	157.330157986828	-6.58547549767368	-44.2884001356902	
989100000	-5.9292551799838	95.4951168899975	-30.1813434881228	72.4824089648262	-30.0035362851775	72.6796708765663	-6.68235708310293	-44.9552070814407	
997200000	-5.93235273393399	158.5032396121	-30.389344086258	-5.34185288262756	-30.2160893856414	-5.05852155706191	-6.74702907469289	-45.7495215516521	
1005300000	-5.94473417271543	-143.216432264248	-30.6024681724987	-74.8111096297527	-30.4335212025835	-74.4356231306613	-6.8182572469128	-46.7825240322498	
1013400000	-6.12747388598567	-101.571362942492	-30.5763106513542	-137.056932572894	-30.4030397729648	-136.628677167983	-6.89751609923503	-47.6385758108706	
1021500000	-6.11102009073147	-71.3499214257608	-30.3872938780444	166.231962455937	-30.2193666779648	166.710059009128	-7.01041505964296	-48.5746970378455	
1029600000	-6.10704825739648	-49.9154962511335	-30.3453965999323	115.822048905793	-30.191832126897	116.356013164776	-7.12370898987445	-49.1235350694951	
1037700000	-6.03043149675012	-33.5474226791292	-30.1908237260867	73.7996225781417	-30.0490620431289	74.4717241706045	-7.15597194442092	-49.8377777248892	
1045800000	-6.16175909357002	-33.2185460671535	-29.8971641882221	38.2808956243406	-29.7725828662905	38.7625812129518	-7.20734772251939	-50.7944689386753	
1053900000	-6.12254005431896	-44.0679168693128	-29.642717013569	8.86281456319387	-29.5258210187718	9.35068811430284	-7.25741072965721	-51.7905361401881	
1062000000	-6.04610839178269	-45.0899019125787	-29.3524459370894	-15.3846630455463	-29.2330105591836	-14.926049296539	-7.31370665970323	-52.6384872727538	
1070100000	-6.04956027038935	-42.5753423018112	-28.6789172146952	-38.8406581166877	-28.5737178091045	-38.6347960826785	-7.31464597121055	-53.4843099038387	
1078200000	-6.06722564380693	-43.7087398424221	-27.5614164835929	-64.6312583013752	-27.5270879780524	-64.3116379475617	-7.32671062251632	-54.5814179199408	
1086300000	-6.12483739783746	-45.5314163493865	-27.0531466132851	-95.0185985679551	-27.0456807578338	-94.6267522453406	-7.37308972780041	-55.6225511768239	
1094400000	-6.15548568764571	-54.1233689883723	-26.7784866931867	-125.159746705671	-26.7643845645175	-124.696449408855	-7.40686161254989	-56.4293457327441	
1102500000	-6.16856689390046	-54.9466294470803	-26.8957400075531	-153.876668016895	-26.8874552238766	-153.476972011914	-7.43064991198433	-57.2706729501902	
1110600000	-6.19016911486328	-55.6482562373402	-26.9415337435311	178.434686195348	-26.9347051737983	178.648222272463	-7.46927142084184	-58.3357360124158	
1118700000	-6.22010002585987	-57.3052784250259	-26.9245343057811	151.42148660609	-26.9079844842837	151.702094035744	-7.53156297868766	-59.206066755752	
1126800000	-6.18610215001941	-64.7708128839396	-26.9372759392213	123.391847033016	-26.8983710027797	123.67178999422	-7.54125002853446	-59.7283471624107	
1134900000	-6.13750805020471	-65.7452588798105	-26.9639511341685	96.3590244916934	-26.9357715048612	96.6605478036396	-7.5123183526582	-60.8582541405953	
1143000000	-6.14142545967098	-66.7374021752478	-27.0553378025511	69.5566659030089	-27.0129866533168	69.8457288067776	-7.51112803649798	-61.8699286059027	
1151100000	-6.16941250813452	-68.2820749220102	-26.9816026359112	43.4541886942951	-26.9267313722676	43.6758835741813	-7.46618001042943	-63.0272911309353	
1159200000	-6.12864583705007	-74.8044737314099	-26.9691695931258	15.5961755087674	-26.8912292770142	15.5919157811841	-7.45369325534739	-64.2285101420677	
1167300000	-6.06531251118457	-75.9093999145176	-27.0352253915742	-12.3266929118043	-26.9561715697602	-12.2172856316689	-7.40324831246286	-65.2678549600024	
1175400000	-6.00904483201414	-76.9640032350373	-27.2999451772815	-39.537937174737	-27.2264952410567	-39.5093878715545	-7.35526604481532	-66.5270088483452	
1183500000	-6.08355461721653	-78.6995852731306	-27.6322531555997	-65.272051148473	-27.5762237710534	-65.2657169143804	-7.2990711336211	-67.7191418288073	
1191600000	-6.00267453060607	-84.0974733720122	-27.8873610010934	-91.0014416814292	-27.8303352438418	-90.9169483793245	-7.26029714157262	-69.1926957538278	
1199700000	-5.89817499092591	-86.9236416114219	-28.1149823002527	-115.756875700002	-28.0548929309227	-115.506791675215	-7.25016168992413	-70.4957756433251	
1207800000	-5.86154282072934	-87.9824896127642	-28.2198936843839	-139.929616262273	-28.1590909501623	-139.832143118976	-7.19561098607963	-71.6878231571371	
1215900000	-5.90001034623105	-89.7547870166982	-28.2141180908848	-164.623102805937	-28.1676935960946	-164.662543918636	-7.14030802652569	-73.3566060644714	
1224000000	-5.83714455039116	-94.1114145522259	-28.0657512772891	170.022846983887	-28.0307896969606	169.889986471254	-7.12613161291179	-74.9737745152904	
1232100000	-5.71442694503556	-98.150530874047	-28.06853623252	143.510577047491	-28.0215489188032	143.397749474293	-7.07560825921494	-76.4847445377265	
1240200000	-5.66110428880357	-99.6832157086265	-28.2899476090451	117.297280847716	-28.2701909143532	116.964958359912	-7.01886984399607	-78.3756985386615	
1248300000	-5.72638851231118	-101.55378383365	-28.4140051248301	92.4762404805899	-28.4211637435227	92.1499300734199	-6.98119771305349	-80.2890172565352	
1256400000	-5.69068740605955	-107.375113581013	-28.7346401475096	67.4710244378692	-28.7446231607093	67.0701850305262	-6.94954403916775	-82.0807958651615	
1264500000	-5.62959699476652	-109.298421182446	-28.954572623589	43.2638803680847	-28.9540312360404	42.7673116775952	-6.89207815016206	-83.8988554157351	
1272600000	-5.59145317072835	-110.990006081885	-29.1357430128768	20.1008194798641	-29.1228902966454	19.7767144766912	-6.87544331073633	-85.7990399345764	
1280700000	-5.64396404153974	-112.92899729143	-29.1453984491799	-3.37347138989475	-29.1500500034794	-3.66854604842922	-6.83234348212222	-87.6491744468341	
1288800000	-5.64220656562083	-115.383835001634	-29.1415657812512	-26.100082997243	-29.1452130704623	-26.4303897413055	-6.82619855424794	-89.786689406692	
1296900000	-5.59872572925371	-117.63730446657	-29.0271626356139	-48.963406311998	-29.0078111306503	-49.2915276871768	-6.83649163447679	-91.8077178788973	
1305000000	-5.57691278164248	-119.518745358251	-28.7868101132462	-72.6932553141153	-28.7658255449851	-73.0862980537065	-6.84650148097652	-94.0271965088045	
1313100000	-5.63999790705222	-121.652206086707	-28.5219696847213	-96.3274400426633	-28.5066531737725	-96.6968514639767	-6.88403004945502	-96.1602367243719	
1321200000	-5.74608421463256	-122.909678651896	-28.1835222972745	-120.51602470805	-28.1581549384662	-121.034412047148	-6.91100762036115	-98.332499580131	
1329300000	-5.731753324584	-125.253621926617	-28.0151729284234	-145.214689734324	-28.0078976285511	-145.610667780598	-6.94957505263046	-100.72485571799	
1337400000	-5.75586543415448	-127.061591372061	-27.7934428847047	-169.362166603489	-27.7770472730285	-169.764405816269	-7.00661844203975	-102.993458314123	
1345500000	-5.84318105563854	-126.733454329143	-27.5802444531689	166.118937492715	-27.5401827134031	165.823036500871	-7.0596891211476	-105.235725059606	
1353600000	-6.01394977696754	-127.198629742659	-27.2269274844838	142.176625438734	-27.1994029812634	141.977730679561	-7.10705174448117	-107.510994073024	
1361700000	-5.95113452814027	-136.745662832566	-26.8135684547443	117.399713742288	-26.7689886837046	117.371485296516	-7.17238483961146	-109.570060921141	
1369800000	-5.99550136611501	-138.725568024478	-26.4628877448879	92.0330794896609	-26.3855849725614	91.9571890589413	-7.24827347527692	-111.867349733864	
1377900000	-6.11382934858922	-137.058973517512	-25.9936545951792	66.4455731683647	-25.9116544425406	66.4084024032888	-7.34298126435285	-114.150016872309	
1386000000	-6.2812442656985	-139.678585281356	-25.6709237077492	40.1585368706774	-25.6170991830414	40.2445701058173	-7.46565295830213	-116.496449942055	
1394100000	-6.27954607118906	-150.548981932092	-25.3832039774675	13.1770942773489	-25.3222875370489	13.1260778363051	-7.60155116292386	-118.780249578025	
1402200000	-6.34945477313478	-152.493558991939	-25.2243256889154	-17.701458244326	-25.1407307567395	-17.6079025839657	-7.77027987276949	-121.160751969363	
1410300000	-6.51372879407883	-154.269769600763	-25.0675691073622	-56.7651273028693	-24.9990464137097	-56.6119908021657	-7.93845083578581	-123.301568475758	
1418400000	-6.76223088056307	-156.682013612902	-25.0170915589599	-95.292105875922	-24.9572371214573	-95.1962017088253	-8.09883796700734	-125.620549048234	
1426500000	-6.84798977772736	-159.3684023182	-24.9701811439134	-133.900316788686	-24.8909016279801	-133.631147017517	-8.28713911152304	-127.763524786757	
1434600000	-6.94995065356432	-161.232797238262	-24.9564461448641	-171.617131270108	-24.8859929826724	-171.401479706863	-8.46401271195234	-129.940702736691	
1442700000	-7.02965806299192	-162.826922836517	-24.8927769038749	150.216716233144	-24.8334095384074	150.461667834314	-8.64351727089612	-132.20967268156	
1450800000	-7.30248427940855	-165.189605101905	-24.8204221316498	112.353701245392	-24.7629885735655	112.582808982857	-8.85661772742164	-134.33711939607	
1458900000	-7.4201285461536	-167.948223491567	-24.7527757206014	74.16282836785	-24.7188737969342	74.3961860986015	-9.09483041812212	-136.2189352398	
1467000000	-7.54377032716453	-169.869877122367	-24.7373296703385	36.2487234839842	-24.6954898968839	36.5229234700552	-9.32739472602864	-138.228955800964	
1475100000	-7.64961930723773	-170.800543794634	-24.7544833964133	-1.60394649066137	-24.7136683800573	-1.50287228257838	-9.62110434053431	-140.128008257626	
1483200000	-8.08607323771528	-165.651247515938	-24.8212388855754	-39.3207508397908	-24.7797256586612	-39.0841777595725	-9.91890206483216	-141.901731837993	
1491300000	-8.25280215715668	-168.265523523308	-24.9354048771789	-76.593737212936	-24.904888722147	-76.3486463227217	-10.2294920515777	-143.649092446862	
1499400000	-8.44769352097559	-170.347458636859	-24.9620587425607	-113.844383239385	-24.9331213871243	-113.665263259069	-10.5500043513458	-145.220446108707	
1507500000	-8.58469064508501	-171.098073058659	-24.8856740444011	-150.550120447634	-24.8264511285752	-150.310813556512	-10.8601957187286	-146.953268568269	
1515600000	-9.0498211880281	-164.073701373609	-24.8767722233365	172.449677070622	-24.8358929622623	172.749212015843	-11.1975305246035	-148.722967906663	
1523700000	-9.32708579023613	-166.396367941581	-24.8427168120424	140.113538864117	-24.8065178595238	140.357679868111	-11.5881643047826	-150.27690116204	
1531800000	-9.5335134450404	-168.244221024176	-24.7162166196149	115.207512645632	-24.6689726663043	115.360825772177	-11.9876424445283	-151.338078220541	
1539900000	-9.65401302517835	-168.62727873557	-24.6485151885727	89.5797448035625	-24.5993998837947	89.7740242056308	-12.3774264601044	-152.051641167513	
1548000000	-10.1221018565948	-169.009678762941	-24.5827484327862	64.7847718487432	-24.5402837648704	64.7908501081247	-12.7692881890162	-152.536317098799	
1556100000	-10.4196145896077	-161.218073702338	-24.5128441574287	39.3611265668955	-24.4699145569866	39.3441774101158	-13.1223572648485	-152.769026563817	
1564200000	-10.674116447399	-162.737930609408	-24.4508363656695	14.1925936055079	-24.4114942653475	14.1848015545136	-13.5184173605002	-153.030980961462	
1572300000	-10.8081216609321	-162.821638481497	-24.3332461320638	-10.9126884878704	-24.2883707912619	-10.8872303283304	-13.9705340769033	-152.934317912055	
1580400000	-11.1225897413175	-162.189772074486	-24.2702024183852	-36.3921062456481	-24.2172291455894	-36.3905570362452	-14.4385464905672	-152.440611381508	
1588500000	-11.4688552783002	-155.839755212371	-24.1431624675625	-61.2806279759036	-24.0981146566467	-61.2360076689322	-14.8360281697774	-151.367226977707	
1596600000	-11.7304482670732	-157.033547272458	-24.0811605671327	-87.0254234808795	-24.0447046054573	-86.8874226121593	-15.1467382139606	-150.324096625441	
1604700000	-11.7853030649789	-156.881231163774	-23.9330371845116	-111.884625346926	-23.8915570532433	-111.877769830596	-15.4459804320337	-149.107790165771	
1612800000	-12.0239053675085	-154.721576030712	-23.7401163079223	-137.760701767195	-23.7109769138832	-137.759912081985	-15.6708535707282	-147.906670145077	
1620900000	-12.3804420194613	-155.063768208453	-23.6537084453056	-163.281415110589	-23.6195641628536	-163.248505267452	-15.98478176176	-146.841246052645	
1629000000	-12.593393001126	-156.258920624394	-23.6004880337529	170.616553189694	-23.5748679100318	170.641159045874	-16.2614147939402	-144.686121647759	
1637100000	-12.5515325689703	-156.209098678579	-23.5108688396026	144.907449578294	-23.4788565084202	144.970106228838	-16.4591921523453	-142.047776203146	
1645200000	-12.6220037649943	-154.07503291613	-23.4301363939502	119.095163455064	-23.395706430575	119.113314701761	-16.4995353482629	-139.206038899518	
1653300000	-12.9854090485221	-153.578073760844	-23.408346432302	93.4378748508025	-23.3622999009387	93.4380223696124	-16.5251657613316	-137.138444288703	
1661400000	-13.1429345429901	-148.568251085826	-23.2818562257524	67.8064178289963	-23.2375396667442	67.893661146587	-16.5352458732868	-134.982914784265	
1669500000	-13.0047052288298	-148.550309547447	-23.2817352043217	41.253328170686	-23.2464577048095	41.4568050729864	-16.4824088197553	-132.957219849497	
1677600000	-12.9301056183495	-155.983918550931	-23.2995645522092	15.7015545106029	-23.2468013034179	15.8416895958415	-16.4673925028922	-130.871984518606	
1685700000	-13.1840588867488	-154.5626983676	-23.41600595034	-9.95943144768825	-23.3481452862581	-9.84608564813732	-16.3546521637025	-128.692244227711	
1693800000	-13.1923187921397	-150.704214671715	-23.4065507758288	-35.1805119422246	-23.3400770220283	-35.0954149234961	-16.1293417072124	-126.849164948374	
1701900000	-13.1309271087343	-151.639607433473	-23.4624077496861	-60.4224052527065	-23.3969077470291	-60.365164488652	-15.8099161697894	-125.520706774652	
1710000000	-12.9223200434302	-157.526587273576	-23.4511928990866	-86.0002246058642	-23.3746906880692	-86.0959566699813	-15.5441116418262	-124.809113035278	
1718100000	-12.9781422049307	-155.931785408178	-23.4217968507139	-110.975938938092	-23.3328221024471	-111.123708688167	-15.3071563523534	-124.040805634757	
1726200000	-13.0117669966084	-153.191829055893	-23.4213032244021	-136.469501397798	-23.3424153148635	-136.68733259415	-15.0399896738255	-123.534940180255	
1734300000	-12.8773207282659	-154.910373839583	-23.5202901888037	-161.58108110694	-23.426209052592	-161.83068880817	-14.7800551207644	-122.787791755932	
1742400000	-12.4709837978155	-153.931482938216	-23.4862460565712	173.085542730637	-23.3970207749056	172.855011549817	-14.3788765432158	-121.909188625374	
1750500000	-12.3993207789584	-152.127808306832	-23.5273455046297	148.321372536391	-23.4523771491071	148.08135574682	-13.9919689407858	-122.009041489251	
1758600000	-12.4102914772716	-152.72120751726	-23.5805780017633	123.308281393288	-23.498984037719	122.986825359539	-13.6407672960362	-122.537485919548	
1766700000	-12.3033794640457	-154.761726491543	-23.5376268382019	98.5111682448683	-23.4589074176476	98.1900209356284	-13.3547357337373	-123.391281594227	
1774800000	-11.7950392951941	-154.87728341247	-23.5588684133665	73.763368262242	-23.4918319792186	73.4876649906973	-13.0583276599257	-124.10434750982	
1782900000	-11.6600003582854	-159.700795472236	-23.4931033160761	49.2099529385652	-23.4314349063145	48.8409494892868	-12.7590424477291	-125.020639167964	
1791000000	-11.6614298174246	-160.539014325831	-23.3986244406634	24.8717613241561	-23.3263425598914	24.4311565468255	-12.4858422271582	-126.109520844102	
1799100000	-11.6237841061094	-162.708988199867	-23.2572197357027	-0.648437783792417	-23.1925761471098	-1.08978121443164	-12.2145901287597	-127.458128463155	
1807200000	-11.1916982852378	-164.371650606921	-23.0704936025926	-25.9204890789237	-23.0136571838621	-26.3303640125022	-11.9266653576057	-128.781341153031	
1815300000	-11.0134999137991	-168.048862602612	-23.0233471849487	-51.9351279284486	-22.9561982299459	-52.3387750559308	-11.6707381885489	-130.400355639858	
1823400000	-10.9642432442856	-168.84892667038	-22.9242217676771	-77.2644875203619	-22.8640763668805	-77.602164949183	-11.4281370953135	-131.964187534166	
1831500000	-10.924014048617	-171.399427448664	-22.9121358600819	-103.10792421402	-22.8660940171471	-103.401836667486	-11.1910006619001	-133.495684822148	
1839600000	-10.582592609656	-174.098736010937	-22.9091692720822	-128.846654108496	-22.8616245732034	-129.209594577166	-10.9686535651695	-135.024415308944	
1847700000	-10.353142609095	-177.304837475681	-22.9381517874377	-154.649156812573	-22.8876406731515	-154.99394534764	-10.7713867536916	-136.545500120654	
1855800000	-10.3747972138027	-178.212257278694	-22.822045298939	179.576153352392	-22.7740624375597	179.251243002686	-10.5941770269095	-138.249967976229	
1863900000	-10.4314366416546	179.255760283932	-22.9118777167738	153.890632141411	-22.8611769399824	153.588067629324	-10.4340693598204	-140.105027807893	
1872000000	-10.1860834610046	176.131296235631	-22.905307231919	127.836269852126	-22.856744573741	127.482150893139	-10.2744957825616	-142.04301618221	
1880100000	-9.89169225697232	175.564366513907	-22.9173268518009	102.007031310422	-22.8699109943695	101.719685281493	-10.1148075953457	-144.114434545808	
1888200000	-9.90471009426848	174.453888020291	-23.020968834488	76.0743996212415	-22.9947522496766	75.7834746043155	-9.99451041091225	-146.218392463777	
1896300000	-9.96741209794136	171.90360678944	-23.1210825838294	50.0371028605546	-23.0782053778773	49.7321994977755	-9.87054624988843	-148.262275697617	
1904400000	-9.78320465585351	168.548779774319	-23.2651781574809	24.2394931122834	-23.2104466186568	24.0670720007289	-9.76637899659831	-150.340659737433	
1912500000	-9.47132501292678	167.409651276239	-23.3918593050727	-1.33303580796115	-23.3351658113362	-1.56015955089077	-9.63866198394885	-152.526467807298	
