!Keysight Technologies N9915A: A.10.33
!Date: Tuesday, 12 May 2020 14:08:16
!Timezone: (UTC+08:00) Perth
!Model: N9915A
!Serial: MY53102697
!GPS Latitude: 
!GPS Longitude: 
!GPS TimeStamp: 0001-01-01 00:00:00Z
!GPS Seconds Since Last Read: 0
!CHECKSUM:2147045690
!Correction: S11(ON U)S21(ON U)S12(ON U)S22(ON U)
!S2P File: Measurements:S11,S21,S12,S22:
# Hz S DB R 50
1000000000	-6.86147561316911	-50.0868717608767	-29.9916115025565	44.5079635157787	-30.0779054154789	46.7572045979521	-5.68666151790896	-53.0423496609629	
1000800000	-6.85927921991745	-49.8431251630516	-29.9835143278431	39.2689440304349	-30.0686585222879	40.0846852092134	-5.69704446373221	-52.6829444140537	
1001600000	-6.85726571030371	-49.5491872570203	-29.9762245035594	34.1159359278917	-30.0611842532872	35.5306304984219	-5.70724075008598	-52.1004081789968	
1002400000	-6.85543206145508	-49.3510481841469	-29.9707661589947	29.7092100356867	-30.0551780955641	31.59949918823	-5.71683698806027	-51.5420333760857	
1003200000	-6.85427969329815	-49.1051916134546	-29.9690042270046	26.3127646948844	-30.0511717496631	28.698717485477	-5.72565086822635	-51.152271724303	
1004000000	-6.85382451399602	-48.9513595369321	-29.9668836868572	22.8950590510301	-30.0482595324851	25.7492743639774	-5.73345856994431	-51.0703678144493	
1004800000	-6.85379597733718	-48.9050430444444	-29.9664834607011	19.488710649816	-30.0453230795598	22.2343730707435	-5.74050275559873	-51.2673180535395	
1005600000	-6.85358412598602	-48.9899396395879	-29.9649886650958	16.0106989029557	-30.0425632918877	18.4765551010151	-5.74666281426394	-51.7566754198654	
1006400000	-6.85327326843241	-49.1762072653261	-29.9634578088259	12.9765509503205	-30.0385870454444	14.9964761599437	-5.75172095737373	-52.3859123703325	
1007200000	-6.85307593966367	-49.4414524745147	-29.9624924080063	9.81292218437554	-30.0357585926778	11.9681716203656	-5.75633426864937	-52.9393879368025	
1008000000	-6.85296147107242	-49.734891022652	-29.9599909498072	6.85392686397718	-30.0325042282733	9.1319395985955	-5.76065726408502	-53.3119077548985	
1008800000	-6.85301151478286	-50.0292735633644	-29.956076598706	4.26893349795446	-30.0303701921805	6.76861558898732	-5.76507907032148	-53.4846261771048	
1009600000	-6.853326269795	-50.2690913363318	-29.9549661202196	2.09746380394838	-30.0265831501595	4.81904038146681	-5.77031295953701	-53.4808466809146	
1010400000	-6.85354061135923	-50.4325773847365	-29.9534581223125	0.334603490876284	-30.0243922031031	2.96039798485099	-5.77649809186521	-53.3534154356661	
1011200000	-6.8534796571148	-50.5320471827571	-29.9524969714168	-1.22591471577637	-30.021821139612	1.11306980039861	-5.78361239381576	-53.1957454443206	
1012000000	-6.85287302015857	-50.5965994517914	-29.9553426887772	-2.56597410517107	-30.0220183366828	-0.443559250343872	-5.7919501485122	-53.1040414181345	
1012800000	-6.85212369972028	-50.6334017997523	-29.959683261406	-3.76831328226046	-30.0242712573415	-1.81550126239257	-5.80110356915001	-53.1475837891575	
1013600000	-6.85132553877864	-50.6468070696622	-29.9670568157608	-5.2914779594333	-30.0284853644464	-3.61193502949113	-5.81132528210367	-53.297364322943	
1014400000	-6.85029413208978	-50.6999087173573	-29.9735559989508	-7.23628821763833	-30.0350436220959	-5.83705552445708	-5.82265676818737	-53.544760517655	
1015200000	-6.84933256947123	-50.7914069666037	-29.9833747195801	-9.4317293071068	-30.0443595000797	-8.33364476438897	-5.83423454991216	-53.8237629037554	
1016000000	-6.84844055003508	-50.8606577076518	-29.9945321768065	-11.8183681063388	-30.0538709754574	-11.0121322355358	-5.84556869527349	-54.031603960919	
1016800000	-6.84751517081176	-50.9256642800333	-30.004971975318	-14.3771723468389	-30.0619405307844	-13.8305363612327	-5.85656123868675	-54.1644605290315	
1017600000	-6.84660730665072	-51.0102501971	-30.0118535924891	-17.1975900100107	-30.0706742267122	-16.7618676738116	-5.86700835378422	-54.2350707611288	
1018400000	-6.84589855055717	-51.1177179003425	-30.0161928762734	-20.1543211293706	-30.0759012178094	-19.8251199718878	-5.87638696724379	-54.216126259449	
1019200000	-6.84525532134175	-51.2385204428834	-30.0184442209289	-23.2517386991939	-30.0798762485108	-22.9710588916824	-5.88483071798031	-54.1872920653989	
1020000000	-6.84474015898072	-51.3638856208281	-30.0201005684659	-26.4716433102023	-30.0806744368472	-26.2207472249786	-5.89190695671021	-54.1863443639747	
1020800000	-6.84435435201561	-51.4743412250114	-30.0204694479071	-29.7494553356206	-30.0781053134601	-29.5408350546835	-5.89803735548046	-54.2465580331656	
1021600000	-6.84395562810506	-51.5403980217436	-30.0192675026649	-33.0383504857582	-30.0748360899562	-32.8849802385873	-5.90311964515646	-54.3844657587368	
1022400000	-6.84394408815102	-51.5815020130121	-30.0185439107279	-36.3874952867387	-30.0687921844596	-36.2491743957285	-5.90728007397915	-54.5970708421969	
1023200000	-6.84412844448812	-51.6210856358939	-30.0139287870658	-39.7006761201669	-30.0620021705924	-39.6395244345627	-5.91119849068131	-54.8709029982699	
1024000000	-6.84437107896707	-51.684903273632	-30.0111663313936	-42.9747126080077	-30.0550419680622	-42.9905366352763	-5.91488186313962	-55.1404186572229	
1024800000	-6.84475589392419	-51.7747886556535	-30.0097058947984	-46.2882111542429	-30.0510336611134	-46.3602913100137	-5.91880649554484	-55.3658777674603	
1025600000	-6.84540387796226	-51.8534128912131	-30.010738842707	-49.7118168650884	-30.0504997886518	-49.8413060153679	-5.92221529723032	-55.5479584066592	
1026400000	-6.84616761975781	-51.9475910240343	-30.0147248994626	-53.2719707120855	-30.0496552997012	-53.416305819271	-5.92614047158792	-55.6646778849293	
1027200000	-6.84708830674364	-52.0427075170605	-30.0181653421629	-56.9640218034603	-30.0537086350752	-57.1448118556561	-5.93122683633259	-55.7239227383554	
1028000000	-6.8480648566464	-52.1286276554598	-30.025833952264	-60.8171727645377	-30.0606705536113	-60.999572374417	-5.93752066489961	-55.7528601125153	
1028800000	-6.84925247042707	-52.2039817141456	-30.0342311540312	-64.7437902138105	-30.0679088726898	-64.943946212556	-5.94496497252998	-55.7989887282283	
1029600000	-6.85072289560902	-52.2667501600511	-30.0440750716979	-68.7222335159383	-30.0784055169448	-68.9267387257103	-5.95304874080108	-55.8941440752114	
1030400000	-6.85244064101799	-52.3267471982535	-30.055485484388	-72.7171007272335	-30.0894789449353	-72.9282387947586	-5.96162019880932	-56.0469629070266	
1031200000	-6.85432792427567	-52.3896136950722	-30.0677791647883	-76.7443887796381	-30.1041206225795	-76.9206188044963	-5.97086868585862	-56.2373377017993	
1032000000	-6.85652886302347	-52.4509574551863	-30.0779226290993	-80.7295628534931	-30.1155578397811	-80.8783972183832	-5.98086793746177	-56.438385712412	
1032800000	-6.85866299484314	-52.514167964422	-30.0856520503273	-84.5964472995219	-30.1315909823163	-84.7536069022375	-5.99044239269079	-56.6187456584292	
1033600000	-6.8609537994999	-52.5700929632735	-30.0933812593947	-88.424459004952	-30.1460033987579	-88.6101708483118	-5.99960727370281	-56.7688536074788	
1034400000	-6.86329216630405	-52.6015323954876	-30.1015233565494	-92.2615219512907	-30.157362448289	-92.490355268925	-6.00836613578381	-56.8605334441222	
1035200000	-6.8655048574882	-52.6194611246953	-30.1083989995923	-96.1308882224463	-30.1701978578498	-96.3981471136086	-6.01630045327362	-56.8787230488729	
1036000000	-6.86777072746205	-52.6352647422345	-30.1148481128113	-100.022191835573	-30.183239335079	-100.32729011761	-6.02329561943539	-56.8840613719234	
1036800000	-6.86990125660485	-52.6622705057395	-30.1209858132991	-103.8798486953	-30.1919024540768	-104.244164795617	-6.02920733712852	-56.8905696987444	
1037600000	-6.87187852472858	-52.6968422596347	-30.1261016443022	-107.694518466026	-30.1993077749224	-108.10512851991	-6.03414625987429	-56.922331879697	
1038400000	-6.8734771607447	-52.7460726691695	-30.1290922222803	-111.355019762903	-30.2054859680832	-111.781889511204	-6.03781587179105	-56.9882524254785	
1039200000	-6.87454185782228	-52.8063874531096	-30.1323260559757	-114.954957906436	-30.2108442625862	-115.368204235366	-6.04068076221248	-57.0976560326713	
1040000000	-6.8752191520834	-52.8762234724236	-30.1344363477578	-118.527310603865	-30.2145169238771	-118.944761178172	-6.04298273986771	-57.2462676684864	
1040800000	-6.87523575981572	-52.9523754899087	-30.1373037220776	-122.110761051178	-30.217745531693	-122.514382817077	-6.04498133270871	-57.3998844620108	
1041600000	-6.87470963653261	-53.0366538560903	-30.1379659119668	-125.743903280172	-30.2196422125527	-126.15867439095	-6.04711900288398	-57.5386391713506	
1042400000	-6.87357229477907	-53.1310789844933	-30.1378600837401	-129.48572130622	-30.2199787618327	-129.900487320244	-6.04954133272241	-57.6353225305135	
1043200000	-6.87160468586674	-53.2294407666101	-30.1372819454915	-133.259410975917	-30.2189266059854	-133.734957549119	-6.05250867459278	-57.6975126000454	
1044000000	-6.86912312550225	-53.3305141281238	-30.1346378325069	-137.023268582964	-30.2149957760988	-137.572473451912	-6.05631602116845	-57.7163879075993	
1044800000	-6.86620275724013	-53.4344389325035	-30.1303193442316	-140.738611881917	-30.2088351991786	-141.314528012711	-6.06106266220776	-57.7266973164651	
1045600000	-6.86260751649985	-53.5453750179503	-30.1265450650432	-144.382707751799	-30.2032008787918	-144.997489708221	-6.06673636541182	-57.7549142416056	
1046400000	-6.85933830450088	-53.6487091501896	-30.1214190438647	-147.934915768751	-30.1963540635972	-148.581863647958	-6.07352922766903	-57.8139252936704	
1047200000	-6.85632485149246	-53.7457539830374	-30.1143290064578	-151.456431295096	-30.1897085215774	-152.109074892782	-6.08117630994772	-57.910620186635	
1048000000	-6.85362035071864	-53.8358664395011	-30.1065475153407	-154.9665864561	-30.1819377001569	-155.573269033612	-6.08954296428134	-58.0439505461398	
1048800000	-6.85154318579107	-53.9154592917245	-30.0992680679629	-158.439885768975	-30.1746138244911	-158.967636685902	-6.09869073649386	-58.192791208391	
1049600000	-6.84951382431585	-53.9857724535719	-30.0884861545024	-161.874472082348	-30.166033998764	-162.377858856097	-6.10821847365987	-58.3370683870869	
1050400000	-6.84752975749805	-54.0523297293408	-30.0777613339109	-165.319023257434	-30.1535215086843	-165.775601816227	-6.11761109199936	-58.460366156929	
1051200000	-6.84544163199055	-54.1207633215338	-30.0633437513585	-168.73994934258	-30.1404785348691	-169.15372181096	-6.12619813627393	-58.5577850683194	
1052000000	-6.84343407552236	-54.1970626299652	-30.0475563455553	-172.148308395376	-30.124350482596	-172.533394067482	-6.13392238775235	-58.6260862791477	
1052800000	-6.84128897422604	-54.2907740104616	-30.030464686669	-175.572144424311	-30.106460960291	-175.938881056713	-6.14133912306973	-58.682559611055	
1053600000	-6.83922877167183	-54.399057309689	-30.0120104760549	-178.997277501671	-30.088391307613	-179.351426028115	-6.14806222091359	-58.7450524235134	
1054400000	-6.83708267124911	-54.5250310005703	-29.9926544314526	177.572846957547	-30.0683872773593	177.211968073369	-6.15428790152872	-58.8299527252192	
1055200000	-6.83518751324242	-54.6627469953218	-29.9723516233712	174.13031531109	-30.0474563071969	173.798122883548	-6.15919051354132	-58.9550318381231	
1056000000	-6.83321538196182	-54.7900282923523	-29.9517724541305	170.685586478344	-30.0267088882724	170.37552198076	-6.16340787254966	-59.119474925119	
1056800000	-6.83121738967152	-54.916261876294	-29.9330627361522	167.190449712955	-30.0072867672914	166.90679828526	-6.167460415484	-59.2928919927628	
1057600000	-6.82915578949063	-55.0407971294486	-29.9169991922577	163.633560788446	-29.9891949119302	163.373680065954	-6.17136138571232	-59.4599879788392	
1058400000	-6.82721929929789	-55.1637367469943	-29.9014744615642	160.015885987207	-29.9733249878205	159.776568764459	-6.17532078868132	-59.5945951027365	
1059200000	-6.82578645903352	-55.2878639961521	-29.888348953201	156.36387316099	-29.9590313186039	156.131762180603	-6.17946270862216	-59.6995864756407	
1060000000	-6.82470452220493	-55.4076028122542	-29.8788237010644	152.699689236013	-29.9463660424997	152.486387506608	-6.18396622702196	-59.7705544930877	
1060800000	-6.82415075908234	-55.4971006060145	-29.868265690742	149.209388682031	-29.9358128146013	148.979437447537	-6.18920634179086	-59.8417317677166	
1061600000	-6.82317563726862	-55.5836099962377	-29.8557074928232	145.730745190297	-29.9230524913647	145.510801170527	-6.19508972217802	-59.9108340254896	
1062400000	-6.821728180021	-55.6679707909488	-29.8414730069675	142.26868760832	-29.9089639010314	142.042053818432	-6.2016429622886	-59.9837018359862	
1063200000	-6.81995150149137	-55.75216268922	-29.8250178660747	138.835992961241	-29.8908603417266	138.588771263843	-6.20874083442584	-60.0626416657219	
1064000000	-6.81786458739454	-55.8331534646142	-29.8053569960431	135.405816618403	-29.8723251947455	135.16290829767	-6.21550098122354	-60.1512665963175	
1064800000	-6.81507781316541	-55.9112427127883	-29.783733035759	131.98032726157	-29.8487921172126	131.736148037358	-6.22175075271135	-60.2500540647547	
1065600000	-6.81168133635192	-55.9861419392664	-29.7578452686381	128.560611061989	-29.8224389393213	128.295725952709	-6.22707165394084	-60.364645010693	
1066400000	-6.80779212584224	-56.0630261976646	-29.7295981366288	125.125058730069	-29.7925184413083	124.863965563106	-6.23136226540833	-60.4870519149263	
1067200000	-6.80347224076684	-56.140663589272	-29.6979822771549	121.684450604559	-29.7633367277479	121.397354908468	-6.2341190972015	-60.6186533556165	
1068000000	-6.79900494459252	-56.2188554770388	-29.6677446066346	118.250207188804	-29.729714265537	117.956988994647	-6.23586072151794	-60.7560983979748	
1068800000	-6.79462349561682	-56.2998906743238	-29.6374466966618	114.843397436247	-29.6997282072217	114.498141076314	-6.23660185478853	-60.8971852814176	
1069600000	-6.79031461173785	-56.3836383017584	-29.6021081371275	111.42058710205	-29.667977759684	111.065828608179	-6.23605369127542	-61.0372751035363	
1070400000	-6.78608301380445	-56.4715032919978	-29.5631537170339	108.013194701385	-29.6340617321047	107.654551493175	-6.23376711389481	-61.1715079046029	
1071200000	-6.7819720296127	-56.5629199066051	-29.5234697605379	104.601621997927	-29.5951831475919	104.252148987022	-6.23055749481048	-61.2941352786334	
1072000000	-6.77796475442277	-56.6524177727693	-29.479987466952	101.200088753833	-29.5484701751325	100.837411110355	-6.22691838146773	-61.4047610860595	
1072800000	-6.7742120223433	-56.7410441972904	-29.4324450065187	97.7829347449611	-29.4982297351537	97.4167027320963	-6.22365792695417	-61.500585011597	
1073600000	-6.77005232663384	-56.8272291617319	-29.3815804218612	94.3375870404554	-29.4432323313366	93.9876157649963	-6.22127895091518	-61.5921837676339	
1074400000	-6.76613643659052	-56.9147944693466	-29.3264596734694	90.9025176492634	-29.3835114786754	90.5285643000538	-6.21868871288482	-61.6755297525587	
1075200000	-6.76320395597287	-57.0017130367154	-29.2656870671631	87.4442259447758	-29.3202191551921	87.0467554829359	-6.2165054761417	-61.7494284474237	
1076000000	-6.7603163548393	-57.0923648844647	-29.2013843371867	83.9581098578176	-29.2549040945354	83.5500533920044	-6.21539753411968	-61.8236492363013	
1076800000	-6.75777924789333	-57.181034414359	-29.1303181280199	80.443836343704	-29.1826814313136	80.0108694704111	-6.21500864252879	-61.8979663619906	
1077600000	-6.75539368255339	-57.2703656905169	-29.057877682744	76.895337060129	-29.1099036999178	76.434413453201	-6.21585267093548	-61.9760817647662	
1078400000	-6.75325107438729	-57.3587799562804	-28.9847102430566	73.302295999432	-29.036709486234	72.811999020074	-6.21822079382171	-62.0587345956181	
1079200000	-6.7515818385327	-57.4472013855789	-28.9144459174243	69.6788143438101	-28.9665138975288	69.150531734163	-6.22177449603632	-62.1487735767251	
1080000000	-6.7502037041192	-57.5360212946637	-28.8425217762771	66.0090609637164	-28.8984299091205	65.4570632097279	-6.22687192013849	-62.249414748796	
1080800000	-6.7492113726403	-57.6245633811541	-28.7683506309804	62.3134055467132	-28.8302735965884	61.7250553614322	-6.23304368888329	-62.3621343347935	
1081600000	-6.74884245932418	-57.7123011557104	-28.6948504657771	58.5697804802458	-28.7660068081021	58.0049467532713	-6.23966247286008	-62.4844511891708	
1082400000	-6.74907826601063	-57.7989144896043	-28.623844609795	54.8273456753901	-28.7002185864264	54.2601006947666	-6.24595675179356	-62.6169057470549	
1083200000	-6.74991883575719	-57.8811720720988	-28.5569768625809	51.0186840293006	-28.6369863947869	50.4780121949125	-6.25141278741059	-62.759612840765	
1084000000	-6.75106610910944	-57.9619359533092	-28.4898127643022	47.197776652013	-28.5734213647923	46.6685984397319	-6.25594688552931	-62.9068886817837	
1084800000	-6.75226709549041	-58.0386467495583	-28.4268875181831	43.3351623868732	-28.5109675295749	42.8164004847371	-6.25948129104198	-63.0565472521128	
1085600000	-6.75355903748495	-58.1134463564765	-28.3666885009767	39.4367474253791	-28.4573491292449	38.9313376099736	-6.26124907586644	-63.2057646368847	
1086400000	-6.75507539538432	-58.1877755498228	-28.3143564649022	35.525457713346	-28.4096626285173	35.0272780584947	-6.26176254204593	-63.3505946621949	
1087200000	-6.75672059522238	-58.2621391648058	-28.2667539092892	31.6075392337282	-28.3665506216204	31.134632491965	-6.26026001922664	-63.4923334398768	
1088000000	-6.75808457769308	-58.3352798087187	-28.2239774708159	27.7065488173382	-28.324991885838	27.2492984890075	-6.25773229837246	-63.6250254101645	
1088800000	-6.75963493175967	-58.4040173344142	-28.1852692109853	23.8076422542237	-28.2863775305564	23.3784153429139	-6.25456366933315	-63.7490917675369	
1089600000	-6.76148863432502	-58.4683786841181	-28.1484186155863	19.9146706836319	-28.2496046309459	19.5065934679586	-6.25120471770464	-63.8621729637836	
1090400000	-6.76349384856365	-58.5320199511453	-28.1117677369637	16.0109087976157	-28.2109696311615	15.6262578286778	-6.24831685399537	-63.9662463983636	
1091200000	-6.76537961197042	-58.5924661381278	-28.0751792997215	12.1040649999481	-28.1727918679678	11.753285980915	-6.24588269038516	-64.0623412287267	
1092000000	-6.7668643565364	-58.6572427926215	-28.0436904983427	8.18834131679313	-28.1382001626899	7.8613415670473	-6.24543684666113	-64.1538864412728	
1092800000	-6.76816328334516	-58.7237782054753	-28.0138097093524	4.2654944653541	-28.1056399860351	3.97057851078085	-6.24616093922281	-64.2443225916503	
1093600000	-6.76910587139851	-58.7917161056636	-27.9848700839205	0.345872571209611	-28.0751618788464	0.07945055829083	-6.24758687331071	-64.3306999125582	
1094400000	-6.7701883553972	-58.8595251673004	-27.9592686329801	-3.58083482761958	-28.0471780534854	-3.82086366537663	-6.25028097957517	-64.4146142317716	
1095200000	-6.77146194520471	-58.9288545842335	-27.9369735382841	-7.49490707398866	-28.0216240203155	-7.72310180504843	-6.25504753484264	-64.4943459680835	
1096000000	-6.77310989193285	-58.9977862249061	-27.9182346405318	-11.3975796483708	-27.997570887842	-11.622600879937	-6.26122623683071	-64.5856306292163	
1096800000	-6.77515051777428	-59.0634725361221	-27.8995283101315	-15.2919195803384	-27.9772348332435	-15.5152576639817	-6.26755074809599	-64.6908803667966	
1097600000	-6.77744161530576	-59.1292183826887	-27.8827208822458	-19.1883041270404	-27.9583226049903	-19.4020425293011	-6.27442615326241	-64.8030982638518	
1098400000	-6.77958763272755	-59.1941196412782	-27.8674468267744	-23.0590608526592	-27.9410399562806	-23.2933044443754	-6.28055043876744	-64.9219449936757	
1099200000	-6.7818746370321	-59.257410394326	-27.8513347991737	-26.9386946385128	-27.9240938670058	-27.1752822941317	-6.28619664915912	-65.0516840606628	
1100000000	-6.78382775769792	-59.3207986493614	-27.8332107688343	-30.8110501771758	-27.9066948233022	-31.0446408267119	-6.29070621934822	-65.1893664238802	
