!Keysight Technologies N9915A: A.10.33
!Date: Tuesday, 12 May 2020 14:11:11
!Timezone: (UTC+08:00) Perth
!Model: N9915A
!Serial: MY53102697
!GPS Latitude: 
!GPS Longitude: 
!GPS TimeStamp: 0001-01-01 00:00:00Z
!GPS Seconds Since Last Read: 0
!CHECKSUM:0961356493
!Correction: S11(ON U)S21(ON U)S12(ON U)S22(ON U)
!S2P File: Measurements:S11,S21,S12,S22:
# Hz S DB R 50
1000000000	-6.81202376767762	-50.1336689060902	-29.3629625937504	28.0081964393592	-29.7126509656316	26.0008861038553	-5.75461668257026	-52.679083224995	
1000800000	-6.81058349933688	-49.9053450817083	-29.3614343225459	22.5995605310957	-29.7072920112124	20.8163137879241	-5.76395321973164	-52.1019169866058	
1001600000	-6.80936902512586	-49.6194608827908	-29.3613816783191	17.5155554180381	-29.7051675189086	16.196718627573	-5.77334791026291	-51.4731813960767	
1002400000	-6.8083335205414	-49.3847851454191	-29.3620768659928	12.2524611933685	-29.7039305272884	11.8176329950453	-5.78204070112814	-50.8403329571816	
1003200000	-6.80804011204063	-49.1288059783812	-29.3653598770485	7.9860562688194	-29.7042431258978	7.63636150909642	-5.7901038840131	-50.3941791391085	
1004000000	-6.80839653025896	-48.9586946589128	-29.369823924402	3.91373371210309	-29.7050091075513	3.79963271389652	-5.79733364769645	-50.2998563174588	
1004800000	-6.80922841532661	-48.8571325182012	-29.3758362013356	-0.489707523272284	-29.7070698620373	-0.255144908125604	-5.80368241307632	-50.53431073973	
1005600000	-6.80986242537546	-48.8452525913316	-29.3814019302465	-5.08349964856639	-29.7085571058029	-4.75564162247278	-5.80921999064361	-51.072710546343	
1006400000	-6.81047847352889	-48.9584955366529	-29.388145939791	-9.28979493907767	-29.7114505166976	-9.20733394667729	-5.81364531379929	-51.7089945028352	
1007200000	-6.8112986304607	-49.1647565568463	-29.3950776449902	-13.4889158418661	-29.7157247863314	-13.5689461083519	-5.81755206924173	-52.2912220334049	
1008000000	-6.81214151100004	-49.4030774240272	-29.4037743143622	-17.8135201218768	-29.7197187235312	-17.9226783277807	-5.82098032758111	-52.7160941636631	
1008800000	-6.81342843931046	-49.6583179135606	-29.4134015423762	-21.7446383912343	-29.7249323121319	-21.8521925744362	-5.82466471364226	-52.9528805920161	
1009600000	-6.81477581956698	-49.9049488732985	-29.4231558266305	-25.1592238792356	-29.7288928430537	-25.3098063181121	-5.82898609532818	-53.0174394200148	
1010400000	-6.81616353977299	-50.1137010764639	-29.4350368704197	-28.074685522121	-29.7326248530895	-28.3176328292154	-5.83413817281914	-52.9598443937957	
1011200000	-6.8171991581763	-50.2907038391818	-29.4440890492572	-30.6749970099928	-29.7367472833318	-30.849909173838	-5.84014867747045	-52.8484013989086	
1012000000	-6.81772066304597	-50.4396196951137	-29.4541703281592	-32.9872330583993	-29.7424765343525	-32.9664126941073	-5.84707756975877	-52.788587439853	
1012800000	-6.81797655668706	-50.5679703854842	-29.4653206213706	-35.0783978366905	-29.7492396154531	-34.7583724274844	-5.85473403246426	-52.8389853540011	
1013600000	-6.81804516502525	-50.6546666617927	-29.4771796563771	-37.0269107011561	-29.7577844194994	-36.4855722590234	-5.86341363378825	-52.9875186306006	
1014400000	-6.81795841558014	-50.756451323525	-29.4927450893449	-39.0495560402191	-29.7692882218062	-38.3880764956198	-5.87327065383087	-53.2119521666665	
1015200000	-6.81795251422673	-50.8675346684225	-29.5105945051336	-41.1726085436016	-29.7848900590191	-40.2933890702375	-5.88313668098977	-53.454073651242	
1016000000	-6.81792712277803	-50.9494704092504	-29.5326537359922	-43.2467721739644	-29.8048060799551	-42.3211800647578	-5.89277330839325	-53.6386051363174	
1016800000	-6.81778527405146	-51.0183321257585	-29.5561643664685	-45.4188472877981	-29.8208427582962	-44.4989160854675	-5.90203224418632	-53.7703707867325	
1017600000	-6.81741581085649	-51.098621415708	-29.5790769258521	-47.8352345342084	-29.8393614717878	-46.881782054927	-5.91077207595672	-53.8588636176831	
1018400000	-6.81713397329977	-51.2010787438346	-29.5978859460823	-50.3361288747241	-29.855958217132	-49.4054706051633	-5.91857910500498	-53.8723888409645	
1019200000	-6.8170506398232	-51.3232249693816	-29.6140349745345	-52.8643739939953	-29.8717313146485	-52.0237184550732	-5.92545054796322	-53.8603405336485	
1020000000	-6.8169611747771	-51.4563277677971	-29.6285843231995	-55.5478497670357	-29.884682672184	-54.7856106061887	-5.93118274186076	-53.8716248853024	
1020800000	-6.81694206714957	-51.5801912884573	-29.6413154511722	-58.3232970887058	-29.8964174432498	-57.6432778502634	-5.93597237491125	-53.9403350976585	
1021600000	-6.8168933320444	-51.6550218861316	-29.6545375425041	-61.2648026437615	-29.906121248757	-60.6578597318324	-5.94012395624875	-54.0871734554582	
1022400000	-6.81723536021412	-51.7044706080498	-29.6639544795856	-64.2655857730525	-29.9138076313692	-63.7511751680282	-5.94366839301596	-54.3025813233845	
1023200000	-6.8177279197383	-51.7495414263889	-29.6714993752462	-67.3281128239473	-29.920265857217	-66.8381369891484	-5.9470884937339	-54.5785403117931	
1024000000	-6.81820473992651	-51.8208519692093	-29.6793774954688	-70.3384894393521	-29.9256933142139	-69.8047617130347	-5.95047840333717	-54.8565836220944	
1024800000	-6.81864172598525	-51.9189045702236	-29.6862663105669	-73.3877703280317	-29.9345129791088	-72.8656402874846	-5.95433353010308	-55.0950880493428	
1025600000	-6.81917086512937	-52.0039808427117	-29.6961231490384	-76.4815209784479	-29.9444694636412	-75.9962065791295	-5.9577780937689	-55.2974327550778	
1026400000	-6.81978546145388	-52.1021692928551	-29.7051372372186	-79.6817405760359	-29.9552511950179	-79.2380586371305	-5.96176228050128	-55.4385137972194	
1027200000	-6.82058134914881	-52.2013313642511	-29.7198126085306	-83.0360311512265	-29.9715025952034	-82.5652401545572	-5.96663793928811	-55.5262065688332	
1028000000	-6.82150071908958	-52.2838605213649	-29.7383682100308	-86.5600145201876	-29.9883592424487	-86.0406750566963	-5.97246417449824	-55.5906738840933	
1028800000	-6.82272124372306	-52.3530371261618	-29.7590429220881	-90.2266948221296	-30.0082386946059	-89.6476431110799	-5.97913644487289	-55.6655317327089	
1029600000	-6.82429830401818	-52.407700826555	-29.7829586025007	-93.9383410205021	-30.0283445587996	-93.3345298321905	-5.98665152850159	-55.7894731824489	
1030400000	-6.8264028914535	-52.4589757333496	-29.8095273911196	-97.7122224001447	-30.054392284545	-97.0844763550023	-5.9944063746283	-55.9644929511518	
1031200000	-6.82887933703228	-52.5190784161896	-29.8372931836132	-101.523103489442	-30.0821205620727	-100.887195682336	-6.00284720142089	-56.1685556224676	
1032000000	-6.83176663668501	-52.5815469225265	-29.869465083755	-105.369872494775	-30.1099742908437	-104.707505942244	-6.01200350984544	-56.3791771986465	
1032800000	-6.83484082989019	-52.644318035474	-29.9011501463514	-109.190680375337	-30.137667743178	-108.498462046367	-6.02077038529416	-56.5635383537499	
1033600000	-6.83796848333786	-52.6989310261183	-29.935270767939	-112.999999919443	-30.1664920374134	-112.288666081457	-6.0291251129693	-56.7097549434019	
1034400000	-6.84101425736764	-52.7295689483631	-29.9700171846754	-116.79326658133	-30.1931607258655	-116.078257872219	-6.03685530250519	-56.798139620248	
1035200000	-6.84390351912779	-52.7434672919555	-30.0023178179309	-120.576590617252	-30.2188023919972	-119.865259057835	-6.04378917241741	-56.8222663905961	
1036000000	-6.84675049741217	-52.7485777050349	-30.0366743010494	-124.383196545928	-30.2433234568564	-123.689764603889	-6.04961308654907	-56.8339795674045	
1036800000	-6.84942890027997	-52.7633482516903	-30.066761171041	-128.182306874324	-30.2699537731328	-127.543567913983	-6.05445143069325	-56.8432777790422	
1037600000	-6.85206191196727	-52.7826680994981	-30.0956921559372	-131.993628993245	-30.2969940051196	-131.409257645087	-6.05800435546305	-56.876139263837	
1038400000	-6.85417960013946	-52.8141780551008	-30.1241054303267	-135.705079030632	-30.3230748842915	-135.15427599947	-6.06029797223023	-56.944913147936	
1039200000	-6.8557215743094	-52.8582825924162	-30.1507752350887	-139.31865957319	-30.3463351370991	-138.781268539343	-6.06185066222239	-57.0604783664314	
1040000000	-6.85688531021774	-52.9133971458894	-30.1749492886369	-142.844019749193	-30.3678295625502	-142.333635357024	-6.06279842379054	-57.2195503527202	
1040800000	-6.85742654823412	-52.9797808976014	-30.1982780625459	-146.349413064444	-30.3857485656595	-145.880299517717	-6.06373019444252	-57.3849876508047	
1041600000	-6.85748588816133	-53.0538626556619	-30.2206656585303	-149.925800213242	-30.4030332030952	-149.454201436591	-6.06477036789292	-57.537844676182	
1042400000	-6.85705893826375	-53.1395846794765	-30.2405936344323	-153.606592820292	-30.4196657457064	-153.136740302436	-6.06596715894734	-57.6468301154785	
1043200000	-6.85598966015644	-53.2309916813195	-30.2577760552792	-157.386619660552	-30.4300382477644	-156.898506391881	-6.06789715348142	-57.7143491840193	
1044000000	-6.85436925090155	-53.3342027155004	-30.2745668248831	-161.183523094886	-30.4410140914308	-160.679811179682	-6.07063973632372	-57.7359947002739	
1044800000	-6.85225881271077	-53.4431507602353	-30.2898730316335	-165.003040502331	-30.4506108750743	-164.452225270613	-6.07433322438437	-57.7476360079336	
1045600000	-6.84935702772864	-53.5600863812786	-30.3047675706467	-168.756989176236	-30.459070082765	-168.123815923902	-6.07883580381436	-57.7732290189943	
1046400000	-6.84661992551547	-53.666277073627	-30.3191128746371	-172.429379027966	-30.4671072116316	-171.689207002381	-6.08444446137781	-57.8208322305206	
1047200000	-6.84387799310835	-53.7606729281115	-30.3324847150268	-175.971562878516	-30.4742564390941	-175.19532686755	-6.09094798819604	-57.9024199406686	
1048000000	-6.84108327335057	-53.8469075906509	-30.3428716518831	-179.424567991611	-30.4791851260006	-178.626350597277	-6.09827386620815	-58.0175288704029	
1048800000	-6.83853219805636	-53.923511220744	-30.3538259447716	177.230641210433	-30.4860548550162	178.003299612634	-6.10596102233104	-58.1527760947471	
1049600000	-6.83586537613915	-53.9932211326673	-30.3631911067467	173.951230449313	-30.4904087756215	174.707683550752	-6.11405025043286	-58.2892977284637	
1050400000	-6.83302414408647	-54.0578635238694	-30.3692783306303	170.681769560563	-30.4927099492686	171.454228492431	-6.12201971498505	-58.4121105994645	
1051200000	-6.82986965800721	-54.1241755080854	-30.3732451436097	167.439013475463	-30.4935941671123	168.199911763225	-6.12940967476632	-58.5130906552648	
1052000000	-6.82664823460497	-54.1955973525344	-30.3726566116139	164.190309085823	-30.4888711125985	164.954594004549	-6.13605900906104	-58.5879688636809	
1052800000	-6.82354538697709	-54.2767553887526	-30.3701645073449	160.920913991666	-30.4830645804891	161.651758445982	-6.14265765195135	-58.6483117499266	
1053600000	-6.82038678981219	-54.3693497824148	-30.3648100445681	157.645179163024	-30.4737687967936	158.355784626075	-6.14865305348376	-58.7112349882646	
1054400000	-6.81722620763967	-54.4792470658034	-30.3573887876287	154.384404906118	-30.4619823729579	155.071791439496	-6.1540534104426	-58.7942248180944	
1055200000	-6.8143791864312	-54.6044440477747	-30.3490814370041	151.123109708403	-30.4492655729518	151.793478760186	-6.15828102069013	-58.9174913037141	
1056000000	-6.81158961437218	-54.7293616407287	-30.3405429402359	147.879479935893	-30.4357969685776	148.534096686253	-6.16175315216082	-59.0760615196744	
1056800000	-6.80885836530276	-54.8600736484033	-30.3318180937804	144.591448574811	-30.4227177811598	145.226908695426	-6.16508243160171	-59.2424238861636	
1057600000	-6.80616916240718	-54.99533108496	-30.3225178169011	141.233369194044	-30.4097052849572	141.841613106837	-6.16815586903847	-59.4043163773193	
1058400000	-6.80390589213793	-55.133469726453	-30.3150964486957	137.802759265104	-30.3987603674357	138.382340314366	-6.17102369128503	-59.5341725907353	
1059200000	-6.80223014841472	-55.2757007961429	-30.3100023467669	134.291979936688	-30.3890703246918	134.848058523995	-6.17408379633918	-59.6331507346728	
1060000000	-6.80096712685406	-55.4160427820088	-30.3060560245929	130.737241540524	-30.3812949748576	131.264442519456	-6.17738114192273	-59.6987678053276	
1060800000	-6.80047205986866	-55.5168057106258	-30.3039270311894	127.240538537733	-30.3748050968822	127.768967325441	-6.18103860214238	-59.7702326967028	
1061600000	-6.79980176266016	-55.6151645295211	-30.3026958711345	123.761301202357	-30.3678867085325	124.293247841206	-6.18520934914328	-59.8410978608529	
1062400000	-6.79868509382869	-55.7100640048916	-30.3015959083079	120.290573744615	-30.3633309598226	120.823712200199	-6.19029510001604	-59.9165937255936	
1063200000	-6.79746649629122	-55.8034578702342	-30.3014369999074	116.823878545977	-30.3610214685118	117.351337467108	-6.19559721306258	-59.9971972887637	
1064000000	-6.79584732778924	-55.8950975863014	-30.3008290417665	113.377574633457	-30.3598467035682	113.912703766608	-6.20096617747986	-60.0916521250841	
1064800000	-6.79367409428844	-55.9824192935267	-30.2990332291319	109.964665377617	-30.3560396472978	110.48663746567	-6.20584235921469	-60.1962424387508	
1065600000	-6.79104877242408	-56.0665690900217	-30.2952245627594	106.568199790777	-30.3538596955966	107.075145359582	-6.21023153988795	-60.3128402348148	
1066400000	-6.78825822678517	-56.1506830477854	-30.2908115626465	103.169677799905	-30.347266624774	103.678299758771	-6.21350888741941	-60.4397729859521	
1067200000	-6.78520246860799	-56.2330049254433	-30.2852579950047	99.7756251195382	-30.3381800643891	100.288891465191	-6.21556018720912	-60.5751992419125	
1068000000	-6.78173408644469	-56.3159816187107	-30.2778707786739	96.4042208084123	-30.329915183449	96.9059701701922	-6.21693681815467	-60.7152938156838	
1068800000	-6.77820220941143	-56.4000028895985	-30.2694248360215	93.032132265445	-30.3193533094652	93.5299302007776	-6.21761003553994	-60.8589157284118	
1069600000	-6.77454339836718	-56.4876651037959	-30.2566682691569	89.6749212098176	-30.3082086439865	90.1696644971299	-6.21728121309578	-61.0015270402172	
1070400000	-6.77105004099138	-56.580785287072	-30.2415959520011	86.3273300565398	-30.2937573295029	86.8208281768414	-6.21501153300463	-61.1368627761113	
1071200000	-6.76777354642135	-56.677611496821	-30.2221269278579	82.9925596182757	-30.2771050805425	83.4975505443748	-6.21186404342864	-61.2616220710223	
1072000000	-6.76466933202361	-56.7743591452298	-30.2006067183318	79.6797496427714	-30.2538696917864	80.1804521049908	-6.20805556645258	-61.3749914098813	
1072800000	-6.76218025065396	-56.8686531826881	-30.1766182631504	76.3522769621548	-30.2277190087787	76.8798488303674	-6.2047847057337	-61.4800443676915	
1073600000	-6.75940281877868	-56.9612123511573	-30.147239041355	73.028273121187	-30.1939855147921	73.5707914050734	-6.2022896040688	-61.5796096206011	
1074400000	-6.75681114516145	-57.0531913487142	-30.1129635986565	69.7103740024648	-30.1590697966356	70.2552022497878	-6.199666213349	-61.6713152578717	
1075200000	-6.75512681653432	-57.1445148623507	-30.0738432935792	66.3887551049708	-30.1191211726471	66.9534281443169	-6.19783759139009	-61.7529958243184	
1076000000	-6.75350690645243	-57.2398477807112	-30.0290498499832	63.0573679040614	-30.0753481245918	63.6373062741997	-6.19723836372478	-61.8328335622078	
1076800000	-6.75225542133446	-57.3326933163265	-29.9786275371902	59.7325829371547	-30.0254891886983	60.3099814205951	-6.19734971358904	-61.9142224158388	
1077600000	-6.75148759314509	-57.4253929373417	-29.9237337878023	56.3661648394282	-29.9699720616385	56.9527046240621	-6.19894661705587	-61.9961307553966	
1078400000	-6.75123263864393	-57.5156503612183	-29.8654092530508	52.9731945156523	-29.9073985609273	53.5599418350408	-6.20179719366709	-62.0807028438599	
1079200000	-6.75150403317047	-57.6038328807078	-29.8054835685448	49.5434243971259	-29.843259033891	50.1420049331405	-6.20590904446401	-62.1722647067961	
1080000000	-6.75199348007888	-57.6897868922991	-29.7431228641816	46.0705480349105	-29.7764231300515	46.6769219883511	-6.21101845840397	-62.2711596949857	
1080800000	-6.75284972172111	-57.7746724804073	-29.6770309172738	42.5766367687028	-29.7073579579669	43.1802867361249	-6.21697173615344	-62.3788482956289	
1081600000	-6.75426225212975	-57.8553085591331	-29.609128753205	39.0320488902638	-29.6400353165476	39.6691116530237	-6.22314006661613	-62.497278243832	
1082400000	-6.75626047611843	-57.9335698514297	-29.541359998414	35.4776554663385	-29.5655035511145	36.1170593055385	-6.22901292496138	-62.6265498809554	
1083200000	-6.7587448411588	-58.0072367356577	-29.4738458147976	31.8841296736315	-29.4940371435789	32.5204940947019	-6.23401072687656	-62.7631036581533	
1084000000	-6.76097504303734	-58.0771277132326	-29.4082618096142	28.2848693839182	-29.419748300861	28.886345439988	-6.23800703910295	-62.9061798641263	
1084800000	-6.76308974943387	-58.1424140695697	-29.3426804303659	24.618835042129	-29.3484836809512	25.2326185973384	-6.24074394325059	-63.0506410483043	
1085600000	-6.76478014164484	-58.2057762988136	-29.2763652764423	20.937872096578	-29.2776374207088	21.5327768309011	-6.24179977712786	-63.1972643749168	
1086400000	-6.76649228615058	-58.2693251160232	-29.2133957190554	17.2367745076824	-29.2127706112345	17.7995016548842	-6.24148280602098	-63.3406751746611	
1087200000	-6.76812077997368	-58.3345690970556	-29.1538492354674	13.5084581530026	-29.1471670250902	14.0469161752965	-6.23939762368617	-63.4820151668695	
1088000000	-6.76924469940155	-58.3983711316986	-29.0980294854941	9.76292909527461	-29.0858459268395	10.2807350506137	-6.23627278090074	-63.6164584755752	
1088800000	-6.77047659362896	-58.4594428066978	-29.0419212845766	5.99989682044793	-29.0295296838264	6.52315195056565	-6.23249604890202	-63.7450156887478	
1089600000	-6.77183185201009	-58.5172869322953	-28.9853725401153	2.24517664898485	-28.9709012396859	2.73076471915402	-6.22851370559894	-63.8667882710906	
1090400000	-6.77335067920553	-58.5758267789834	-28.9316119888055	-1.52197732257997	-28.9151458813799	-1.08232496284609	-6.2251194375849	-63.9807933942817	
1091200000	-6.77494816537619	-58.6339350991959	-28.8771468176866	-5.32771602242349	-28.8605333759305	-4.91677761923114	-6.22299663726861	-64.0877512360024	
1092000000	-6.77629088977389	-58.6946050884722	-28.8276654272336	-9.15359328913411	-28.8087805551941	-8.77388309563236	-6.22265813332301	-64.1913900957483	
1092800000	-6.77742760193323	-58.7582233258314	-28.7802041798157	-13.0091119970506	-28.7612103683244	-12.6314857690822	-6.2234061309643	-64.2924831675107	
1093600000	-6.77814346916957	-58.8229563535927	-28.7341222538939	-16.8682087985298	-28.7165197313624	-16.5068107657003	-6.22525753412903	-64.3882326396089	
1094400000	-6.77900995011669	-58.8878236927185	-28.6949545866211	-20.7489415899173	-28.6751049797934	-20.3819277654773	-6.22897119407274	-64.4800300722436	
1095200000	-6.78033961134567	-58.9547352994604	-28.656851960969	-24.6102905574286	-28.6361202087697	-24.2542169965753	-6.23447234070053	-64.5671430028317	
1096000000	-6.78213492132038	-59.0213871366739	-28.6215789274223	-28.4704324372478	-28.6020901048819	-28.1351366751493	-6.24117302696719	-64.6654744410489	
1096800000	-6.78433008416886	-59.0857061546524	-28.5875873372227	-32.3274896417373	-28.56726461541	-32.0094317818667	-6.24797857657218	-64.7744720568164	
1097600000	-6.78666759009202	-59.1489109123163	-28.5564379497477	-36.1924322110717	-28.5349155565249	-35.8897359909053	-6.25536845926808	-64.890445277157	
1098400000	-6.78892666362091	-59.2116674152365	-28.5254513327916	-40.0615112870698	-28.5035322682592	-39.7584031317736	-6.26201356408355	-65.0128302157542	
1099200000	-6.79126094540519	-59.2728953646282	-28.4943268618595	-43.9293968470305	-28.4738014345079	-43.6430843658694	-6.26846475419591	-65.1429742138436	
1100000000	-6.79327806424217	-59.3336644087926	-28.4652622216305	-47.7925318944527	-28.4445959435886	-47.5168006417931	-6.2738711008321	-65.2809156541288	
