!Keysight Technologies N9915A: A.10.33
!Date: Friday, 08 May 2020 14:12:22
!Timezone: (UTC+08:00) Perth
!Model: N9915A
!Serial: MY53102697
!GPS Latitude: 
!GPS Longitude: 
!GPS TimeStamp: 0001-01-01 00:00:00Z
!GPS Seconds Since Last Read: 0
!CHECKSUM:0222736587
!Correction: S11(ON U?)S21(ON U?)S12(ON U?)S22(ON U?)
!S2P File: Measurements:S11,S21,S12,S22:
# Hz S DB R 50
900000000	-5.29275392289648	-164.658805385043	-28.9875275269558	-78.6594687408717	-28.8520671123116	-78.8131525292513	-5.4974556072308	-37.6500150100687	
908100000	-5.31194980578134	-10.2467387407727	-29.0593322930582	127.653942620839	-28.9231048069992	127.789897837059	-5.56600931012705	-37.6727349305447	
916200000	-5.53056605233176	143.554760326674	-29.1124744197686	-23.2538562615569	-28.9700885609088	-24.0285668967945	-5.67743959598748	-38.4282566620158	
924300000	-5.62061166115747	-62.0855575843585	-29.2138692816786	-170.35880928414	-29.0570189268752	-170.832858685398	-5.77959140558786	-39.3783228527977	
932400000	-5.76619306812663	91.2974002566671	-29.4332406059205	40.0464196406634	-29.273970611227	39.8913082902895	-5.8838271366047	-40.2072900729228	
940500000	-5.78635880306716	-114.355627776726	-29.6675110115752	-112.991516854843	-29.5273114201272	-112.993446946232	-5.99169238361013	-40.8282516479309	
948600000	-5.88069083638945	16.740274763968	-29.9888028243631	96.0314019415048	-29.8767598982973	96.2898211160841	-6.15233772159809	-41.545908224083	
956700000	-6.08315360356525	105.047005430385	-30.8334894465682	-36.4016714783081	-30.7443805688294	-36.5432033667232	-6.2628526223663	-41.9568258995671	
964800000	-6.1817297869582	-151.942513970029	-31.8381036938119	-166.417071549023	-31.7243417204633	-166.243827201091	-6.37605621988354	-42.7210948927225	
972900000	-6.05284888692396	-52.0241767537343	-32.7935851962036	65.2183154145154	-32.6546678074404	65.1900342608361	-6.50083627669389	-43.5208112507013	
981000000	-6.10393946844614	32.0075574126133	-33.3816847752438	-61.2399614755254	-33.2411073602164	-61.1853355181408	-6.58743675545766	-44.2192213525364	
989100000	-6.25428323918165	104.498180612201	-33.8281664186256	178.344224365516	-33.693584127425	178.580743617503	-6.6614959241834	-44.967953377453	
997200000	-6.36420444834766	166.34703433523	-33.9539571311636	62.6945981851186	-33.8104039755004	63.1541723618662	-6.73314868878901	-45.9424070981288	
1005300000	-6.24575775904737	-136.779695330027	-34.1432245381703	-47.6808017806868	-33.9886987993954	-47.2042496998279	-6.83417326777777	-46.9911355226559	
1013400000	-6.27885984434039	-94.247951432064	-34.4529508597029	-149.545507611451	-34.2938904752589	-149.064753835598	-6.90123970843365	-47.6743085782005	
1021500000	-6.38657927521641	-62.4292172604708	-34.6198853829392	114.392883599263	-34.4719139211661	114.994165596905	-6.98551751044814	-48.6583590439126	
1029600000	-6.50469734692213	-41.7701351983258	-34.9963374069447	25.0664387163193	-34.8273604270764	25.5543922248734	-7.08968155313643	-49.2639973282667	
1037700000	-6.3151994506876	-27.2495740357469	-35.299833686264	-55.9054685119397	-35.1158153553135	-55.4377681104926	-7.13767602440544	-50.0752863647582	
1045800000	-6.26998268168835	-26.5114859022227	-35.7042691024248	-128.779303289026	-35.5356353787321	-128.294061677566	-7.20988981427387	-50.9580642057857	
1053900000	-6.28205230865481	-35.7788876764559	-35.9493780276909	166.197846615804	-35.7987661917409	166.767449568599	-7.25085962605761	-51.8411876016891	
1062000000	-6.40470253582234	-37.1935720169912	-35.8303237656462	107.195927676145	-35.6626657738399	107.521573528068	-7.30910403195521	-52.6701759031695	
1070100000	-6.37461092042219	-36.0771920175839	-35.6378010561646	48.7929053642127	-35.445912989104	49.4043525746076	-7.29129204958751	-53.5511538727555	
1078200000	-6.20143955118942	-37.2948371595023	-34.8189426952975	-8.72951544701795	-34.6207915340886	-7.95068874762626	-7.33522928044955	-54.7481355248261	
1086300000	-6.24900749304283	-37.3674557014111	-33.9026277358261	-68.1498396341034	-33.7362023831436	-67.6719332602007	-7.3746468271302	-55.6762362136541	
1094400000	-6.44057669786366	-45.9316959246119	-33.1101161424824	-122.859255623564	-32.9674263997294	-122.193558122338	-7.38574375545562	-56.6352990949706	
1102500000	-6.45811947483499	-48.3192991016735	-32.7030324039086	-170.779400488189	-32.5447593635107	-170.37761778137	-7.42621240145592	-57.6430204889702	
1110600000	-6.31289529904274	-49.5555140421363	-32.2174738164008	142.098297290416	-32.0673903166333	142.290355563999	-7.47491262194762	-58.6188501189725	
1118700000	-6.29233606286214	-49.660537872889	-32.0016847375354	96.1214561439347	-31.869112612964	96.3561904803244	-7.52526152544452	-59.3711137238522	
1126800000	-6.42592509474246	-56.5511007584039	-31.8269736678776	50.6760276805329	-31.7245084465592	50.9442344351111	-7.51650548883517	-59.9284041807884	
1134900000	-6.44762856770828	-58.8332786925794	-31.6240172903725	3.79609071639629	-31.5496850495258	4.33367993082732	-7.49811044556063	-61.1103579345638	
1143000000	-6.25656844603115	-60.7671644907933	-31.9122477430703	-40.8698729641873	-31.8333110950856	-40.0880638003181	-7.50424087333962	-61.993030786241	
1151100000	-6.18673627892746	-61.1520543438866	-31.9379923701364	-84.4838982885473	-31.8731048683647	-84.0134260718562	-7.44417802520252	-63.0797657475159	
1159200000	-6.3067475376109	-66.8010494804699	-32.222773663251	-126.567556517888	-32.1987739317909	-126.533770363156	-7.42167730824106	-64.3897118254926	
1167300000	-6.34791577722736	-69.0693640553695	-32.0579628253647	-168.948855990029	-32.0398415052885	-169.080750928014	-7.38339371768032	-65.4147033241921	
1175400000	-6.18552758849279	-71.2346592827094	-31.8358573906451	148.257475476171	-31.8046405151809	148.049696449151	-7.3424864431141	-66.6598238876011	
1183500000	-6.09385918034215	-71.9200458772859	-31.927974887586	104.430316774231	-31.9248971722524	104.350748868621	-7.29446018192468	-67.8405873004994	
1191600000	-6.14556570127787	-76.4084571114628	-31.9011151352045	61.2671414243766	-31.8896218097584	61.0848418474239	-7.24788760293116	-69.2674441901009	
1199700000	-6.17181306908665	-79.7170116298091	-31.9568362118197	18.5610052255449	-31.9401176469913	18.4025159226657	-7.22275814117993	-70.6711334306794	
1207800000	-6.02708697574689	-82.2945430597775	-32.1245322376786	-24.0818432409026	-32.1062532450828	-24.3467099358438	-7.18004433436196	-71.9341570654365	
1215900000	-5.92273014294795	-83.3325326226501	-32.1894390839141	-65.1528941153986	-32.1862546506876	-65.3411316667163	-7.12909912165976	-73.6194294862236	
1224000000	-5.93042155516767	-86.4056520813784	-32.1676517542804	-107.734437348995	-32.1812389185374	-107.795211956234	-7.11796587447893	-75.1614471623457	
1232100000	-5.94791751620454	-90.9975173417648	-32.198679299583	-150.620008029783	-32.220027910574	-150.519398450467	-7.0650077325594	-76.658922865065	
1240200000	-5.86851353547302	-93.9213029430845	-32.4341318492084	167.647843516494	-32.4495573761535	167.686854951484	-7.0076774158037	-78.5981084937332	
1248300000	-5.74371946164318	-95.5048525979651	-32.55761732562	127.191001490053	-32.5380712394719	127.26789916491	-6.99093835815034	-80.4691721270461	
1256400000	-5.7481013558186	-99.98125986182	-32.5330562848079	87.0022255533958	-32.5009574130876	86.8662533469526	-6.95099594064677	-82.1330374928978	
1264500000	-5.84169696309942	-102.181946611813	-32.2228556831843	46.0664341067621	-32.1930060847341	45.5866792421214	-6.88255258923748	-84.1263572951874	
1272600000	-5.80105291054336	-105.129281728628	-31.9842199023074	4.12519069546136	-31.9575014081883	4.0369196037891	-6.89341221675504	-86.0917857747058	
1280700000	-5.65520372498557	-107.175828641611	-31.5702471207906	-39.3887854149716	-31.5351889268922	-39.1685935484371	-6.85314297055338	-87.7260303205832	
1288800000	-5.67194461794901	-108.305059129153	-31.4722808440897	-82.2020978587198	-31.4497191969702	-81.9264124105328	-6.81382046102546	-89.9435888890723	
1296900000	-5.77266153373742	-110.511403129939	-31.378829548822	-125.423353174984	-31.3554695293195	-125.077152972816	-6.83748536969283	-92.0961989002446	
1305000000	-5.78608086071397	-113.656330598194	-31.3939604889721	-168.625734930429	-31.319688514331	-168.270173170582	-6.85027818859658	-94.29241709839	
1313100000	-5.65966214102509	-116.057647543138	-31.4963531471355	147.852904915641	-31.4513231446379	147.94109266994	-6.89678973661003	-96.433458175755	
1321200000	-5.75442285495242	-116.090382394865	-31.741504734262	105.911907538185	-31.6770893598339	105.920673727825	-6.92577491996252	-98.5407718867819	
1329300000	-5.88125538995043	-117.900050916691	-31.7577350596477	63.1848148721464	-31.6928322478794	63.410678366292	-6.96241919506222	-100.85933728378	
1337400000	-5.93854309195867	-121.156985892434	-31.9506495159073	20.5423272556025	-31.8613979869322	20.4656590572827	-7.00629808779848	-103.090073100482	
1345500000	-5.89610440287506	-121.440086271791	-32.2027716420442	-21.4130394302598	-32.0688896590715	-21.2793201774766	-7.05011223215198	-105.431108419235	
1353600000	-5.99947417240352	-120.426636146302	-32.5716256005664	-62.6844444880136	-32.4056883145892	-62.5316142833921	-7.11533731787465	-107.757253111951	
1361700000	-6.06846849780332	-129.38994395286	-32.6036391085956	-102.932218228487	-32.4489586090395	-102.808006120729	-7.17137980009112	-109.796326235548	
1369800000	-6.20211649975573	-132.478003769946	-32.7205862751504	-143.996827318585	-32.5612729745035	-144.131512032045	-7.23729146024431	-112.206048767802	
1377900000	-6.18363036628916	-131.781575872946	-32.8423389271401	175.384577765398	-32.7287628890792	175.246819947414	-7.34884775286642	-114.532048201063	
1386000000	-6.26633922689376	-133.189426797098	-32.9426663810195	134.625141990839	-32.8520899543481	134.32454388253	-7.47359170117446	-116.671565386348	
1394100000	-6.39137503090084	-143.132427251798	-33.0873927326868	94.9925979983819	-32.990520003802	94.5860794203266	-7.58664143395548	-118.928731738708	
1402200000	-6.5767896117862	-145.96103665283	-33.4105573937182	50.8738185793524	-33.2555484467149	50.2848806826536	-7.7459092692225	-121.401085678257	
1410300000	-6.5802598023486	-148.82294742873	-33.4502070290354	-1.02977517322296	-33.2794143297762	-1.62789535777	-7.94013300191904	-123.610154748289	
1418400000	-6.69954848305982	-150.343706617782	-33.5103674047297	-52.9890869091238	-33.330292646552	-53.490815123063	-8.11116295181586	-125.804933700608	
1426500000	-6.91367078892164	-151.977081149569	-33.5740101549802	-104.779918111833	-33.4182553323832	-105.279621982657	-8.29342613015406	-128.068271327421	
1434600000	-7.168192530021	-154.590708269497	-33.5424668040451	-155.925313258905	-33.3538072020167	-156.062351819815	-8.48993994417664	-130.309735130753	
1442700000	-7.10437726644055	-157.580539552071	-33.4460547916212	152.254458031772	-33.2621753265396	152.246924004213	-8.65872854464169	-132.452799524868	
1450800000	-7.23471395978265	-159.271521005121	-33.4275378265314	101.858127156004	-33.2585974424199	101.673441948237	-8.85900663698868	-134.809577400785	
1458900000	-7.4654896523722	-160.555911848892	-33.1767330265225	50.9819694058732	-33.0181528048012	51.0169756327567	-9.12226086089189	-136.639133688891	
1467000000	-7.74068729241742	-163.002286628451	-32.8858552588818	0.855415295766932	-32.7624128129164	0.731896561623557	-9.34746029420669	-138.462846599164	
1475100000	-7.76732748762834	-165.763785129492	-32.2916182845064	-49.808041213312	-32.1891560300308	-49.8707063858236	-9.60042176437608	-140.422401070566	
1483200000	-7.98005035683966	-160.10343405928	-31.9524538373523	-102.552889651643	-31.8505223922722	-102.632749930259	-9.90527476412137	-142.301579302278	
1491300000	-8.20290681877026	-161.151032530272	-31.4614911748831	-154.878593852571	-31.3687380296828	-154.812939576341	-10.2275560735925	-143.806318556427	
1499400000	-8.62897458059266	-163.336347197983	-31.0087578122746	152.206322639291	-30.8662987095273	152.224640365834	-10.5324319972549	-145.353706013705	
1507500000	-8.72195102310551	-165.930274938968	-30.5721466182226	99.128513969894	-30.4216220585848	99.3044159342392	-10.8885080212849	-147.106829019091	
1515600000	-8.9081189779213	-158.996625910063	-30.0623309710395	45.2818776415955	-29.922396685402	45.4585905860442	-11.2514240512806	-148.646142755375	
1523700000	-9.2104969732249	-159.479351332277	-29.3819781501323	-4.69312279175045	-29.2824271144987	-4.24595155050213	-11.6505515805747	-150.099654623621	
1531800000	-9.68763420899924	-160.968737391135	-28.953221474347	-47.3115161058906	-28.8444742090168	-46.7224881393173	-12.0221948047076	-151.360635338416	
1539900000	-9.87463266907146	-163.380760344598	-28.640366332059	-90.0327108979458	-28.547506464542	-89.661858238566	-12.4035681529694	-152.526010434057	
1548000000	-10.0005526280919	-164.166911715367	-28.2252779643805	-133.106334601759	-28.1307948865007	-132.664794117157	-12.8306737829825	-152.958692244798	
1556100000	-10.2191462770759	-154.712005723178	-28.0108679190343	-175.818048913569	-27.9210658734376	-175.539076749023	-13.1591529183179	-153.436770104266	
1564200000	-10.7872144374503	-155.257257963197	-27.7025868115241	141.158457327926	-27.6137882281176	141.420452544547	-13.6138032327183	-153.768026356182	
1572300000	-11.0316275663896	-157.366066664517	-27.375391653158	97.2715581267654	-27.2811472320198	97.4433076840976	-14.0364877462394	-153.361717014887	
1580400000	-11.1223854790612	-157.971448891593	-27.1092400939535	53.189816207643	-27.0138313610867	53.456082121418	-14.4269103077077	-152.936331427679	
1588500000	-11.3039388813234	-149.40345213772	-26.9597602961425	8.27421796450977	-26.8690365820958	8.63420758096316	-14.8023043079704	-152.16976333386	
1596600000	-11.7730993046131	-148.614971286795	-27.0882410182838	-36.5644935023911	-26.9786415621011	-36.240890400787	-15.1309110134269	-151.093410775183	
1604700000	-12.0236678028177	-150.060053270192	-27.1382898788801	-80.4363573779438	-26.9954501394158	-80.0839575429631	-15.4183331235077	-149.690012306382	
1612800000	-12.0738444986481	-150.457697658674	-27.2907356503814	-124.383889331623	-27.1365885548143	-124.066580716841	-15.6465133397511	-148.409204860648	
1620900000	-12.1903498061366	-149.465990731422	-27.4159153098104	-168.034883508017	-27.2495216370691	-167.666249799621	-15.9958163766967	-147.052125555974	
1629000000	-12.5203512627852	-148.091934695987	-27.802871913145	148.806310049593	-27.6508130140263	148.9797267121	-16.2121579436994	-144.557563304426	
1637100000	-12.8890134076697	-149.121144084129	-28.0232407089047	106.066921799295	-27.8906812920906	106.292148270933	-16.3927248970434	-142.732053867312	
1645200000	-12.8283650120191	-149.355022992475	-28.3666114034268	63.4583908908619	-28.2223747877646	63.7152206985011	-16.5261923865341	-140.176368158992	
1653300000	-12.7825949734959	-148.3387013356	-28.630839989468	21.8479652576113	-28.4795897825044	22.0997459244569	-16.5525456466273	-137.56358133054	
1661400000	-12.8910795960912	-140.753455094828	-28.9265446910969	-19.0647842403034	-28.808485918641	-18.9342245781828	-16.5598184723879	-135.076586480956	
1669500000	-13.2031892304715	-140.987302511872	-29.1058547456767	-60.1350169847549	-28.9829571436537	-60.2481711542322	-16.4697323523591	-133.043883030889	
1677600000	-13.1987136330539	-150.58027582377	-29.2373099840097	-100.966437673859	-29.1221256439204	-101.087690772714	-16.4292648432585	-130.892996352279	
1685700000	-13.0404244336302	-150.014090498171	-29.5941781344944	-142.591353375523	-29.4567509941445	-142.658727560092	-16.2529999838701	-128.938791484829	
1693800000	-12.9704631833168	-143.306193168167	-29.7525630693131	178.119895326918	-29.6123697261654	178.333825555331	-16.0636224042714	-127.339118862809	
1701900000	-13.17792796291	-142.831127829972	-29.874982962716	138.820957000562	-29.7452078035719	138.859874028017	-15.82954321364	-125.73324062246	
1710000000	-13.0927296926579	-151.671019249815	-29.8929367170706	98.4798172923795	-29.771867635404	98.5021902969456	-15.5495151183192	-124.540605763184	
1718100000	-12.8754765204639	-151.985972014944	-29.9157395319541	58.8318543987214	-29.8224048557444	58.8912273614057	-15.2961613334174	-123.810096340776	
1726200000	-12.7236867156158	-147.28820195619	-29.8331616028004	20.1236057385748	-29.7660309124017	20.0007170331946	-15.0648004845107	-123.308456500676	
1734300000	-12.8536364489523	-146.62601835506	-29.7112395694047	-19.0139602219834	-29.6619556603996	-19.1508769329694	-14.7768766235274	-122.734539526731	
1742400000	-12.6710029155023	-147.432512338166	-29.5259129677458	-59.0409270861318	-29.4928098367851	-59.2347233081259	-14.3727386593781	-122.40963811124	
1750500000	-12.4335167150782	-148.141970768585	-29.1236303596219	-98.515624221766	-29.0642793636497	-98.518926790145	-14.0558705652879	-122.656515333811	
1758600000	-12.113807754381	-147.120612897007	-28.8463067953049	-139.184192040591	-28.7761683527646	-139.230878409613	-13.6914777587657	-122.538442765678	
1766700000	-12.1671423948348	-146.938806214086	-28.4275057806941	-179.983243137253	-28.3812259983407	179.953276961361	-13.3058449723824	-123.352531122658	
1774800000	-12.0413810840605	-148.1044478282	-28.1898720907202	137.736971306648	-28.1534556551632	137.593450789092	-13.0366562445094	-124.304573930746	
1782900000	-11.8541693956197	-154.972774300677	-27.875006819637	95.421212986256	-27.7745588735603	95.3945683306684	-12.7267627325134	-125.205658801588	
1791000000	-11.4700623000618	-155.082752050008	-27.6796247163012	53.7255910862029	-27.5901953104746	53.7266916145568	-12.4537114664051	-126.276046632133	
1799100000	-11.42470019107	-155.267749667737	-27.4981370701864	11.2782116701647	-27.396364819454	11.2513129001881	-12.1951880591019	-127.539547555883	
1807200000	-11.3229813038853	-156.839232943314	-27.1651608301078	-30.318324067496	-27.0896227117479	-30.4929368101172	-11.9316760451694	-128.791088873995	
1815300000	-11.1861552063045	-163.128661027676	-27.0138759816748	-73.8033744655123	-26.9424261201728	-74.2446920075261	-11.6957706435123	-130.238347895536	
1823400000	-10.8527632632336	-164.383376120674	-26.9629640089163	-116.982657233001	-26.8954569787681	-117.358390632881	-11.428747477225	-131.933148504492	
1831500000	-10.782167869189	-164.524689348272	-26.9742997003518	-159.942510571901	-26.9009619405477	-160.450941396588	-11.2333571508966	-133.683428486897	
1839600000	-10.7213241993058	-166.475648432166	-26.9108917449672	157.542108120565	-26.8318261720559	156.951675953429	-11.0249511023789	-135.177831558353	
1847700000	-10.5819756468612	-171.482343121711	-26.8651451952963	113.326152973857	-26.7972963077313	113.095772540454	-10.7991311377725	-136.686645935304	
1855800000	-10.311955988619	-173.445449017166	-26.9317678915875	69.4436833914797	-26.8515823593372	69.1142319929756	-10.6187042728462	-138.569102392659	
1863900000	-10.2068613462459	-174.123190665223	-27.2532490436119	26.7262384540346	-27.1523332316741	26.3745064370518	-10.4547919921826	-140.354312405032	
1872000000	-10.1831805805769	-176.387327726924	-27.4326392975033	-16.6730425945339	-27.3344033578192	-16.9230900833888	-10.2718800415974	-142.501194345436	
1880100000	-10.0562457525881	-178.666032551881	-27.751574801852	-58.7291563690245	-27.6362861292344	-59.0128202019799	-10.1250369984771	-144.57525924556	
1888200000	-9.84142864929597	179.133979407391	-28.0178077067809	-100.796163656831	-27.8842937412888	-101.071499797155	-10.0093929435936	-146.533663298992	
1896300000	-9.72238795278073	178.016918227382	-28.3191718548435	-142.042271563396	-28.2006913574066	-142.266055802537	-9.86508894955649	-148.632088690896	
1904400000	-9.73709789310321	175.814559497741	-28.5451664139421	176.267670715476	-28.4391423900057	176.059223203042	-9.76001435891883	-150.720969668152	
1912500000	-9.63854416300827	173.424557695002	-28.8274447484357	135.509011497693	-28.7076305364386	135.223849290379	-9.63942369484053	-152.930626352757	
