!Keysight Technologies N9915A: A.10.33
!Date: Tuesday, 12 May 2020 14:14:21
!Timezone: (UTC+08:00) Perth
!Model: N9915A
!Serial: MY53102697
!GPS Latitude: 
!GPS Longitude: 
!GPS TimeStamp: 0001-01-01 00:00:00Z
!GPS Seconds Since Last Read: 0
!CHECKSUM:1017261828
!Correction: S11(ON U)S21(ON U)S12(ON U)S22(ON U)
!S2P File: Measurements:S11,S21,S12,S22:
# Hz S DB R 50
1000000000	-6.85792266562177	-48.9380853358729	-33.9753424672119	25.1092553825732	-34.1464450935978	24.4134078573446	-5.74763753233345	-52.2200529489061	
1000800000	-6.85534425119997	-48.6332761447113	-33.9584295027407	22.2738775201731	-34.1242877434305	21.8438067573165	-5.75704232215261	-51.757872900893	
1001600000	-6.85288262983947	-48.3301501557157	-33.9444061433705	18.3009503606116	-34.1044185131724	18.3085683160989	-5.76633650494916	-51.1834952047124	
1002400000	-6.85060167390954	-48.0920614827592	-33.9328645384932	13.7897677013629	-34.0867712576431	14.843849831738	-5.77511520956962	-50.6187626688356	
1003200000	-6.84908934508326	-47.8744791346024	-33.9232015613763	10.3323980171924	-34.0722990770242	11.1347258436244	-5.78322697285492	-50.2188521443995	
1004000000	-6.84805320153975	-47.7612536726366	-33.9160464654029	7.32301965761023	-34.059624439597	8.13465624218016	-5.79051432673329	-50.1461351007081	
1004800000	-6.84758269186389	-47.7866263750132	-33.9096076943868	3.53183804944037	-34.0484616507106	4.64654198958665	-5.79691501471423	-50.3525557461773	
1005600000	-6.84693735486381	-47.9375743030316	-33.9022484148567	-0.760512955593256	-34.038574311694	0.466429713910692	-5.80243415310885	-50.8632460703137	
1006400000	-6.84631026655862	-48.2024239310642	-33.8969054067098	-4.74260651588314	-34.0309641527732	-3.84333343317585	-5.80692716568316	-51.5145283490965	
1007200000	-6.84581940745209	-48.5533006757915	-33.8920583876413	-8.57460880549565	-34.0252695307094	-8.03003583689827	-5.81072630901532	-52.1254166961043	
1008000000	-6.84541121581239	-48.9342310127845	-33.8899986998473	-12.3578918826288	-34.0219883157052	-12.0151511560966	-5.81428968071683	-52.597584432752	
1008800000	-6.84529750628705	-49.3259361020404	-33.8847483898553	-14.9834847737121	-34.0151426870269	-14.8391597402915	-5.8179422782875	-52.8735330126581	
1009600000	-6.84538258902036	-49.685927948401	-33.8793919705688	-16.39418546184	-34.008278705328	-16.6781273400195	-5.82217060369286	-52.9796491149056	
1010400000	-6.84573958257068	-49.9803725194518	-33.8750087382509	-17.5517994430145	-34.0022632533015	-18.0346493270842	-5.82692711534342	-52.9567219339666	
1011200000	-6.84563691261211	-50.206843112912	-33.8731358774986	-18.0546135617196	-33.994899586426	-18.3836793205687	-5.83237475950164	-52.8903733572797	
1012000000	-6.84481386805492	-50.3838080062974	-33.8717093701971	-18.2571263503242	-33.98973504557	-18.1419914899196	-5.8389000528739	-52.8682455175753	
1012800000	-6.84358988796852	-50.5299089710583	-33.8724106404875	-18.4841533669145	-33.9885728228004	-18.0348745038102	-5.84603361044841	-52.9535911762942	
1013600000	-6.84242092563058	-50.644810827487	-33.8745777473707	-19.1280484487246	-33.9908693215813	-18.3576475592049	-5.85441680518069	-53.1340226752348	
1014400000	-6.84092410615059	-50.7811338788896	-33.8798392075904	-20.0982071874582	-33.9976637473108	-19.3743700273487	-5.863916244478	-53.3899075911409	
1015200000	-6.83967184599209	-50.9244779848871	-33.8919337011974	-21.2690427172869	-34.0101342692327	-20.522984181251	-5.87372489655662	-53.6528197118772	
1016000000	-6.83842734990462	-51.0269640323357	-33.9085602403894	-22.5939678949315	-34.0286776372771	-21.7924897246951	-5.88342808156642	-53.862103954383	
1016800000	-6.8372678679691	-51.1001338543456	-33.9221760464531	-24.0739982876715	-34.0390570393611	-23.3676027209524	-5.89282935558679	-54.020986944739	
1017600000	-6.83594724585471	-51.1804000741745	-33.9322165022058	-25.9273083332105	-34.0475450654587	-25.2909449523764	-5.90167177980945	-54.1365029649055	
1018400000	-6.83499792290805	-51.2775035746584	-33.9368694967903	-27.9578199223266	-34.0492281666063	-27.4652108465163	-5.90979257863153	-54.166483054994	
1019200000	-6.83409587277368	-51.3946453083669	-33.9397257410106	-30.2234152178237	-34.048650864633	-29.7856235082862	-5.91684068082358	-54.162463608939	
1020000000	-6.8332773038626	-51.520555184649	-33.9374506913512	-32.7343293020176	-34.044789515017	-32.332199798085	-5.92287657555236	-54.1638437743357	
1020800000	-6.83266502953873	-51.6385996070811	-33.9292574273999	-35.4765071653818	-34.03710129982	-35.1326420440664	-5.92790961082957	-54.2092896083125	
1021600000	-6.83214906678301	-51.7058380146347	-33.9210225639468	-38.3818350998788	-34.0267423572496	-38.0401010976268	-5.93226366340574	-54.3321273718426	
1022400000	-6.8319721643201	-51.7503703977696	-33.9116578214663	-41.3404491835257	-34.0163446599803	-41.0818220108268	-5.93588326318945	-54.5246045116871	
1023200000	-6.83208661459603	-51.789875904373	-33.9033065358806	-44.3002007343306	-34.0034165454947	-44.0649216535023	-5.93923832664582	-54.7815657608766	
1024000000	-6.83219074106711	-51.8531197483968	-33.8962698740263	-47.267113695401	-33.9935192864704	-47.0300593416655	-5.94244146622471	-55.0427314780799	
1024800000	-6.83259429825638	-51.9374537257035	-33.8903361962511	-50.3644191953546	-33.9882429082101	-50.0925705173154	-5.94569784872261	-55.2617735981424	
1025600000	-6.83315259689431	-52.0040064505476	-33.8885633591687	-53.5841340761295	-33.9857485800749	-53.3188606718653	-5.94830996057282	-55.4512193726426	
1026400000	-6.83377623894833	-52.0762294887209	-33.8914691100766	-56.9810188409172	-33.9875203056315	-56.7255110058726	-5.95121888770129	-55.5736679535284	
1027200000	-6.83463883662844	-52.1485337841745	-33.8974601553795	-60.5763307930084	-33.9940419831961	-60.3099384314236	-5.95491624541404	-55.6456552556088	
1028000000	-6.8355785320683	-52.2080238229643	-33.910272394405	-64.2810130840801	-34.0069560345288	-64.0312671452712	-5.95958493252932	-55.6903364154315	
1028800000	-6.83669136607554	-52.2582927117832	-33.9253183153317	-68.0947218563253	-34.0257128055056	-67.8993625234003	-5.96500237929406	-55.7493236461266	
1029600000	-6.83801817892928	-52.2952462700268	-33.9439737498591	-71.983550503996	-34.0430891564349	-71.8193075059256	-5.97092872014578	-55.8564275848904	
1030400000	-6.83970722522972	-52.3310861670493	-33.959139687238	-75.9010962413818	-34.0631220859323	-75.7869359562051	-5.97727757854665	-56.0141109487559	
1031200000	-6.84153618744326	-52.3804872608008	-33.975301240475	-79.8747158312221	-34.0801429881338	-79.7908909794296	-5.98416593615279	-56.2000411543509	
1032000000	-6.84374801023073	-52.4364653122685	-33.9913260396677	-83.8049986162385	-34.0952903168169	-83.8593913946282	-5.99160671326251	-56.3932146116414	
1032800000	-6.84595865997719	-52.4966121688613	-34.0066802373874	-87.692718711627	-34.1079567093787	-87.7859944685091	-5.99901037313518	-56.5647223236848	
1033600000	-6.84840937220255	-52.5532338085104	-34.0170346821397	-91.5246286512409	-34.1241538120964	-91.6849749339055	-6.00604880094802	-56.7015514284125	
1034400000	-6.85087334361856	-52.5902268043736	-34.0282975192287	-95.3428110996579	-34.1314813959864	-95.5275061650282	-6.01294684473037	-56.7782707262977	
1035200000	-6.85319050142625	-52.6078582420764	-34.0401067088227	-99.1625047323608	-34.1404576483833	-99.3883056059599	-6.01914379086655	-56.7977283600251	
1036000000	-6.85540289932433	-52.6178341493183	-34.0496515549763	-103.033334974481	-34.1484271670699	-103.293892545342	-6.02479576584532	-56.8096641577106	
1036800000	-6.85742269747448	-52.6386156616222	-34.0584809811383	-106.944629619588	-34.1567062764785	-107.255724417814	-6.02932415440225	-56.8257182702125	
1037600000	-6.85917295443417	-52.6719347680918	-34.0630402349388	-110.773402639226	-34.1604386189662	-111.117930442646	-6.03301400615289	-56.8612508163366	
1038400000	-6.86069794706882	-52.7217832212506	-34.061415204488	-114.403879081694	-34.1616978218881	-114.713593156609	-6.03573628437657	-56.9302970687817	
1039200000	-6.86180874923025	-52.7833939981687	-34.0603782964098	-117.851275689243	-34.1614746348969	-118.100691158697	-6.03793397497547	-57.0400056079069	
1040000000	-6.86247770690609	-52.852164554408	-34.0589621532575	-121.25395417305	-34.1585025854912	-121.48385910761	-6.03957502954957	-57.1873696185595	
1040800000	-6.86256968154037	-52.9298953435313	-34.0544295651757	-124.745125469192	-34.1547521014436	-124.932835931678	-6.04137402807292	-57.344387489837	
1041600000	-6.86216555157452	-53.0160651451805	-34.0488016671485	-128.34824852078	-34.1494143773112	-128.469930000154	-6.04335616207767	-57.4819704453821	
1042400000	-6.86126097287022	-53.1123150466031	-34.0417972325356	-132.115705258576	-34.1432966950843	-132.196101856449	-6.04544234369092	-57.5762368949304	
1043200000	-6.85964897101237	-53.2137387759579	-34.0341155475273	-135.950379883896	-34.1365046926449	-136.009962311395	-6.04826664635569	-57.6358981317669	
1044000000	-6.8574840887472	-53.3166960390261	-34.0237256263279	-139.766101329007	-34.1249715386311	-139.807932366087	-6.05199952823012	-57.6551614960607	
1044800000	-6.85491192374894	-53.4214010191425	-34.0129787956655	-143.39737225914	-34.1124407289056	-143.425773061834	-6.05639265441579	-57.6688602669175	
1045600000	-6.85147779605688	-53.5357372506113	-34.0003517717455	-146.863736263819	-34.095998945851	-146.881752803959	-6.0618194025527	-57.7023001510893	
1046400000	-6.84835003823601	-53.6422514328763	-33.9846178111781	-150.202519921795	-34.0775975971008	-150.23815409106	-6.06803760128549	-57.7700527554093	
1047200000	-6.84535960967739	-53.7378588663357	-33.9692731819877	-153.518872370283	-34.0592411981907	-153.567708234279	-6.07553470893294	-57.8733974214876	
1048000000	-6.84250840962079	-53.8244994843514	-33.9514932706168	-156.792963532898	-34.039979098017	-156.836681118219	-6.08355481178301	-58.0123953437083	
1048800000	-6.84004901833366	-53.9036863242654	-33.9336547772506	-159.973361945436	-34.0205627745376	-160.006955568962	-6.09199169836888	-58.1691141602542	
1049600000	-6.83759004542563	-53.9778506075854	-33.9135922470861	-163.147905174216	-33.9979166943458	-163.20855327611	-6.10098888321629	-58.3247701085321	
1050400000	-6.83494001994299	-54.0481736346816	-33.8910837742616	-166.344220065178	-33.9743317804531	-166.411777150148	-6.10965850259219	-58.4613657389253	
1051200000	-6.83217687266987	-54.1180051374417	-33.8674282967492	-169.548177463994	-33.9466032068362	-169.594928500013	-6.11758683212013	-58.5722278551692	
1052000000	-6.82945250404794	-54.1933949604724	-33.8422055923686	-172.754149069143	-33.9170902912322	-172.756052994191	-6.1248759354549	-58.6539024112199	
1052800000	-6.82664836379111	-54.2813658388555	-33.8139677943361	-175.972139724193	-33.885127678872	-175.960226283465	-6.13147735088213	-58.7186143121798	
1053600000	-6.82383802805698	-54.3838256869952	-33.7850737629599	-179.193956914815	-33.8521514732711	-179.180540037306	-6.13756624858819	-58.7825514854354	
1054400000	-6.82087136757435	-54.5027759868573	-33.753858362805	177.557607174698	-33.8188899676229	177.582599855065	-6.14306718484999	-58.8622029217529	
1055200000	-6.8181581760331	-54.6335827084568	-33.7231646524426	174.30678691076	-33.7850512356779	174.347143723103	-6.14743528241463	-58.9795499494869	
1056000000	-6.81525527705385	-54.7592442480406	-33.6917568751363	171.020649714845	-33.7509107104816	171.090799340147	-6.15093687069126	-59.1298752731333	
1056800000	-6.81235922644111	-54.8854057958183	-33.6616521213396	167.676759795494	-33.7183731168425	167.758070536173	-6.15412287239257	-59.2896802870713	
1057600000	-6.80935631067256	-55.0099645954718	-33.6334910601	164.26698436189	-33.6870284035389	164.346369309693	-6.1571614549965	-59.4482379958079	
1058400000	-6.80659250607161	-55.1370137023848	-33.6064804050528	160.782267678281	-33.6574693049979	160.868825736213	-6.15992842586002	-59.5769417709498	
1059200000	-6.8043251865729	-55.2679510472372	-33.5811126160206	157.26247056625	-33.6295531080499	157.358865420628	-6.1628874331824	-59.677735723622	
1060000000	-6.80241771814791	-55.3953429046139	-33.5550581107634	153.739354524311	-33.6034986825422	153.830892790946	-6.16616087769419	-59.7493246849982	
1060800000	-6.80101685349338	-55.4978214535692	-33.5318428767981	150.439074319008	-33.5775038993175	150.538884300153	-6.1699960174596	-59.8277796067032	
1061600000	-6.79934520087006	-55.6003247512235	-33.5074010272115	147.140725588881	-33.5480158149146	147.239482515071	-6.17440183311268	-59.9055011723864	
1062400000	-6.7973834926038	-55.7003917097011	-33.4820376738754	143.845800605915	-33.5201195660423	143.953625294763	-6.17982112056375	-59.9868889809875	
1063200000	-6.79523100371346	-55.8002370808729	-33.4537447474824	140.571258200509	-33.4900333874946	140.662893698997	-6.18601117036522	-60.0731020347017	
1064000000	-6.79299519316583	-55.8993967761751	-33.422197138405	137.303475137515	-33.4567769930451	137.400029370476	-6.19204123085366	-60.1696552260806	
1064800000	-6.79065909206424	-55.9951334786977	-33.3912066917304	134.047402324485	-33.421743733884	134.137536275959	-6.19781463018013	-60.2754941507022	
1065600000	-6.78781543925513	-56.0863135265855	-33.3516421126794	130.810652404897	-33.3778761359325	130.853150435665	-6.2028949860133	-60.3930183519041	
1066400000	-6.78505910772525	-56.1784821488561	-33.3079516358833	127.54328256237	-33.334089550632	127.6106004702	-6.20701044077379	-60.5190415964099	
1067200000	-6.78221793692409	-56.269672286954	-33.2649369634684	124.277124629681	-33.2924243868748	124.335910025192	-6.20980237106821	-60.6537020049002	
1068000000	-6.77931123543759	-56.3609170279739	-33.2238522423762	120.99180350465	-33.2474779019001	121.061441725223	-6.21166393087344	-60.7907420223908	
1068800000	-6.77646587114774	-56.4524466195923	-33.1831566719248	117.722325129317	-33.2014278123951	117.778920749835	-6.21295377388824	-60.9355618047544	
1069600000	-6.77390659364431	-56.5450021064634	-33.1372411960096	114.461811791908	-33.1514610879788	114.500990756461	-6.21334896167941	-61.0797415635521	
1070400000	-6.77136208838604	-56.6412887246877	-33.0892730765278	111.212010507851	-33.102964036303	111.255758939101	-6.21209982993769	-61.2161482295747	
1071200000	-6.76887244293543	-56.7403930858112	-33.0385915766348	107.98592003614	-33.0546330186619	108.036764616872	-6.2100757677771	-61.3423033873008	
1072000000	-6.76664306317092	-56.8370564130267	-32.9784806537764	104.766923043967	-32.9947322512526	104.795977913161	-6.20714371553124	-61.4565908141788	
1072800000	-6.76480466279536	-56.931440715048	-32.911236167348	101.562186198845	-32.9277941801832	101.60506547532	-6.2049127790627	-61.5609230735683	
1073600000	-6.76274189375315	-57.0227380144639	-32.8431844623784	98.3324261378994	-32.8588933981654	98.3628800899631	-6.20339517178238	-61.660804797461	
1074400000	-6.76108067230533	-57.1134260644943	-32.7633391808507	95.0814721256685	-32.7803803366369	95.1158824816901	-6.20184377260072	-61.7517713035787	
1075200000	-6.7602279419981	-57.2033963570803	-32.6784473644581	91.8394645657852	-32.6958008597152	91.8880291646258	-6.20100870800493	-61.8314548689624	
1076000000	-6.7594271264607	-57.2943411456321	-32.589279788466	88.5429537774871	-32.6095630395222	88.6180509623596	-6.20132096311212	-61.9069311950057	
1076800000	-6.7589418740162	-57.3823755035284	-32.4909169523421	85.2897652125468	-32.5139441999674	85.3517833640003	-6.20214662681243	-61.984547771515	
1077600000	-6.75860856420608	-57.467690498117	-32.3853986385878	81.9423551731058	-32.4066889093936	81.9882862215833	-6.20382801186641	-62.0625964621279	
1078400000	-6.75838795427456	-57.5511801012776	-32.2692799590711	78.5043898110325	-32.2948671342564	78.5775326948565	-6.2069478179458	-62.1450727276967	
1079200000	-6.75856765325116	-57.6336539594215	-32.1559688705267	74.9892435028696	-32.1820064056672	75.0747838571274	-6.21108400666956	-62.2321696241462	
1080000000	-6.75863723559815	-57.7165710844555	-32.0467708253945	71.4332053354951	-32.0733361171353	71.564770922821	-6.21629403920651	-62.3271897827829	
1080800000	-6.75901968279038	-57.7992993427987	-31.9312809095106	67.8479316840383	-31.9642713099149	67.9930314462158	-6.22224482335163	-62.4330472807262	
1081600000	-6.76003094387606	-57.8797948975326	-31.8136848964048	64.2031961385106	-31.8540127559136	64.3543309910283	-6.22870134683398	-62.5473800669072	
1082400000	-6.76185415878826	-57.9606702881028	-31.695712215541	60.4993136432576	-31.734707614041	60.6386635647567	-6.23444454089532	-62.6709392706101	
1083200000	-6.76429528549573	-58.0368505176908	-31.584955685134	56.7287619355536	-31.6221113839612	56.8446497485987	-6.23968261354432	-62.8019132617152	
1084000000	-6.76689558259182	-58.1104693464513	-31.4834451290477	52.9301286359926	-31.5142045035036	53.0095961318456	-6.24354363467492	-62.9393800384597	
1084800000	-6.76946317242254	-58.1789145242696	-31.3888586169917	49.0662705417056	-31.4151776622558	49.0904425670429	-6.24641981751318	-63.0782363205145	
1085600000	-6.77199679229791	-58.244864651954	-31.2960122653031	45.1894879638238	-31.3266012195969	45.1792495200074	-6.24791057127393	-63.2200365923415	
1086400000	-6.77468107918034	-58.3093956394264	-31.2170337100117	41.2979472351182	-31.247752789239	41.2457749924359	-6.2479774197834	-63.3598555491821	
1087200000	-6.77726562343588	-58.3735204005368	-31.1450322147909	37.4255250721456	-31.1774945278686	37.3095146984126	-6.24629391516231	-63.4977014879751	
1088000000	-6.77930584492082	-58.4345105086732	-31.074114481385	33.5283776237696	-31.1054094295873	33.4005394227538	-6.24363910365545	-63.6281582764688	
1088800000	-6.78131870621932	-58.4902889017453	-31.0068841955592	29.6224556814991	-31.0424563700453	29.5071341058205	-6.24021191188905	-63.7515810456776	
1089600000	-6.78334566945997	-58.5440107233116	-30.9370576534989	25.7432260375977	-30.9782840507554	25.6167254681896	-6.23650283673282	-63.8679199345402	
1090400000	-6.78541457939708	-58.5964829149026	-30.8709620995451	21.8269875264287	-30.9126600979692	21.6918837673099	-6.23345034933063	-63.9750840146042	
1091200000	-6.78728004851343	-58.6465333228704	-30.8073277729809	17.8802647558055	-30.8481347175449	17.7301059610755	-6.23152240643399	-64.0761660610137	
1092000000	-6.78876981754908	-58.7008536925472	-30.7451962663214	13.9272104075845	-30.7911906922561	13.7561076733364	-6.23091860862369	-64.1707526797211	
1092800000	-6.78959255636008	-58.7570450333619	-30.690459050444	9.94464258980713	-30.7369450774235	9.76119057794506	-6.23127837549444	-64.2633326633305	
1093600000	-6.78998013814569	-58.8173202415818	-30.6379251684461	5.94989739857272	-30.6876354671262	5.77617279264092	-6.23259003278562	-64.3519279668717	
1094400000	-6.79039018470488	-58.8773680718482	-30.593173512654	1.95618864154562	-30.6414901558129	1.79096174957454	-6.23538965270756	-64.4361435481779	
1095200000	-6.79118643435263	-58.938693876701	-30.5495075721353	-2.02544160245088	-30.5982260346076	-2.18877323316917	-6.23976000420826	-64.5179539006858	
1096000000	-6.79251008122944	-58.9997046115417	-30.5125512269295	-6.00136075149305	-30.5600529919778	-6.15420966730068	-6.24547341527272	-64.6145731786524	
1096800000	-6.79425152037003	-59.0588238994815	-30.474008191302	-9.96047814993904	-30.5213311268008	-10.1035778830212	-6.25145679336755	-64.7218821765999	
1097600000	-6.79605030030304	-59.1169203771858	-30.4401560884843	-13.9361644695731	-30.4845598739173	-14.060515029729	-6.25776490223095	-64.8366624449284	
1098400000	-6.79755884426823	-59.1740671547402	-30.4091946208208	-17.8840421627504	-30.4519055485822	-18.0231597564028	-6.26366754418943	-64.9577702140664	
1099200000	-6.79903312731413	-59.2308738459248	-30.3780720643006	-21.8276705180218	-30.4210280021948	-21.969188029111	-6.26931034879017	-65.0854577885415	
1100000000	-6.80013238097833	-59.2887677568612	-30.3457644721073	-25.7847597101241	-30.3906630295428	-25.9212524786526	-6.27395537572294	-65.2222892921716	
