!Keysight Technologies N9915A: A.10.33
!Date: Tuesday, 12 May 2020 14:20:12
!Timezone: (UTC+08:00) Perth
!Model: N9915A
!Serial: MY53102697
!GPS Latitude: 
!GPS Longitude: 
!GPS TimeStamp: 0001-01-01 00:00:00Z
!GPS Seconds Since Last Read: 0
!CHECKSUM:1102029094
!Correction: S11(ON U)S21(ON U)S12(ON U)S22(ON U)
!S2P File: Measurements:S11,S21,S12,S22:
# Hz S DB R 50
1000000000	-6.65219936979703	-45.5066825645771	-32.6360432328446	-10.7275593739241	-32.7735585209876	-11.158302201168	-5.81625097755643	-52.6973279106001	
1000800000	-6.65576260571726	-45.5135146173753	-32.6261989652304	-17.2356390934125	-32.7616921756417	-16.8377430460814	-5.82011514193219	-52.6873314520462	
1001600000	-6.65920940387689	-45.6270726858906	-32.6156446713054	-21.9935813824308	-32.7507516191487	-21.6868860302771	-5.82419066111622	-52.5557455743083	
1002400000	-6.66295673192037	-45.8462692988593	-32.603486666072	-27.7089516779563	-32.7390875621739	-27.1113053745516	-5.8283865807249	-52.4181037923574	
1003200000	-6.66705230713288	-46.0687272293883	-32.5922295927563	-33.6997075721642	-32.7269912010041	-32.1879427956094	-5.83252167067117	-52.3036799815113	
1004000000	-6.67152662959103	-46.3560309564187	-32.5806177490497	-39.0338285227805	-32.7136579735777	-37.1429671061389	-5.83639464578919	-52.250353809424	
1004800000	-6.6761055040531	-46.670762030132	-32.5703434970261	-43.9966339741396	-32.6997835631988	-41.6095500440154	-5.83966790706998	-52.2428658023022	
1005600000	-6.68029460441088	-47.0239774240863	-32.5582899254704	-48.5372447536443	-32.6857517076531	-46.2242222354699	-5.84251580364368	-52.4098262226713	
1006400000	-6.68405409222637	-47.403435682064	-32.5486358157522	-52.8542384967877	-32.6737333128553	-50.7853645501112	-5.84488267589175	-52.6751849558867	
1007200000	-6.68778239394437	-47.8420475274815	-32.540036068819	-57.2264702022938	-32.6620097027072	-55.3727887532567	-5.8470660336186	-52.9233317549397	
1008000000	-6.69120019953974	-48.302940882261	-32.5340456071178	-61.9127698932076	-32.6531114498515	-59.9760684122055	-5.84953098881585	-53.1037120730987	
1008800000	-6.69459687432135	-48.7580901089188	-32.530097726848	-66.3552655088604	-32.6467753402106	-64.5501464725295	-5.85189892881599	-53.2230162851997	
1009600000	-6.69818073361906	-49.1768020573014	-32.5277968689437	-70.4240075233139	-32.6411883387675	-68.6821598229933	-5.85428454774861	-53.2661462996807	
1010400000	-6.70162876984146	-49.5230815883826	-32.5264315451405	-74.564552131848	-32.6353296242167	-72.8693608367413	-5.85680862384391	-53.1971880955594	
1011200000	-6.70453893623475	-49.7885557132171	-32.5247393975487	-78.6275059811391	-32.6304266802229	-76.9697897151068	-5.85948438975729	-53.082706443501	
1012000000	-6.70689367235445	-50.017184272423	-32.5215784784015	-82.7630786160289	-32.6247564352969	-81.457216364384	-5.8627624780197	-52.9770673688902	
1012800000	-6.70897831428753	-50.2499390588514	-32.5208203657685	-86.8577737202899	-32.6195475579501	-85.6408974169651	-5.86653852190603	-52.9313596719703	
1013600000	-6.71107531844023	-50.484550551278	-32.5193032516161	-90.4819648217949	-32.6138178950024	-89.3574283542929	-5.87153989967914	-52.9564990425179	
1014400000	-6.71292258361976	-50.7642547423812	-32.5172508489116	-93.4101581256587	-32.6093882713482	-92.4069926073177	-5.87777461131709	-53.0367511704694	
1015200000	-6.7150314250831	-51.0756957272136	-32.5167432246672	-96.2439819032814	-32.6059739236184	-94.9306884628144	-5.88455295055438	-53.1405910673683	
1016000000	-6.71718056062463	-51.3532659405413	-32.5158104563634	-97.7312370541766	-32.601462768797	-97.0362654690154	-5.89132884612357	-53.2849710169261	
1016800000	-6.71921541217894	-51.6062661683337	-32.5165274700221	-98.1781673192206	-32.5986096832204	-97.7175857426038	-5.89811876083968	-53.4569360384943	
1017600000	-6.72116836707669	-51.8427849325657	-32.5192625209372	-98.6818512391734	-32.5992781680211	-98.199310156537	-5.90479721804183	-53.6184047196592	
1018400000	-6.72291042541078	-52.0688730760029	-32.5219624439871	-99.6398714898882	-32.5990860741637	-99.0204258840888	-5.91085269577958	-53.7190036416832	
1019200000	-6.72449717505508	-52.2881892820657	-32.5254945090041	-101.10572861564	-32.5982837107849	-100.310631381362	-5.91644782070556	-53.8135736837881	
1020000000	-6.72590627567721	-52.4854198812264	-32.5268521040689	-102.896534598071	-32.5975596907657	-102.043984457803	-5.9218178412851	-53.9078341210004	
1020800000	-6.72714070679563	-52.6572617079794	-32.5272811835358	-104.927853578588	-32.5970719834366	-104.034774503513	-5.92705917288911	-54.011990540777	
1021600000	-6.72817996316816	-52.7750268609837	-32.5264781924981	-107.134179465942	-32.5973019327466	-106.191390499686	-5.93201903211531	-54.1347341070905	
1022400000	-6.72934661237664	-52.869205477427	-32.5215544405076	-109.438988485505	-32.5927011073702	-108.556009117435	-5.93698134652271	-54.2708864932697	
1023200000	-6.73039425854229	-52.9532526422732	-32.5165542320594	-111.760225002604	-32.5851683298196	-110.960897955366	-5.94236209007386	-54.4408398192646	
1024000000	-6.73133870769006	-53.0498525173628	-32.5087153396919	-114.139991000068	-32.5744824385865	-113.439075250864	-5.94749925503199	-54.6119316511335	
1024800000	-6.73239860098058	-53.1538536009612	-32.5001977718433	-116.535226198043	-32.5632988833966	-115.936859329419	-5.95255352252373	-54.7667784649449	
1025600000	-6.73353742314037	-53.2313677330559	-32.4911387118596	-119.015455319029	-32.5505312307622	-118.531960992481	-5.95697324286013	-54.9162010022322	
1026400000	-6.73458893914382	-53.2992732898174	-32.4823081309806	-121.612957819402	-32.5398288165151	-121.172968698875	-5.96140461331782	-55.0417515243593	
1027200000	-6.73574562307272	-53.3534900269089	-32.4785639318674	-124.378970765526	-32.532015344926	-123.992732814813	-5.96590739844911	-55.1576919571933	
1028000000	-6.73674532188252	-53.3859696089927	-32.4769266063331	-127.371368915872	-32.526069064952	-127.042168175954	-5.97067639317734	-55.2552814270693	
1028800000	-6.73766317482306	-53.3989377417954	-32.4823209875765	-130.529008527523	-32.5266698210456	-130.236660485879	-5.97565647281243	-55.3502568347262	
1029600000	-6.73855453955386	-53.3883290840584	-32.4888213210333	-133.819453183654	-32.5316005795473	-133.539382273719	-5.98055609488332	-55.460881738624	
1030400000	-6.73958452681853	-53.3634013225294	-32.4971432700752	-137.19978562162	-32.5403374206562	-136.918880380342	-5.98540347601032	-55.5991172988334	
1031200000	-6.74066180613309	-53.3413260505799	-32.5121238770558	-140.702631126935	-32.5528582229695	-140.392475837676	-5.99059638025366	-55.7651302771776	
1032000000	-6.74178440937983	-53.309205212144	-32.5302046237693	-144.299564763165	-32.5737955662011	-143.980614512752	-5.99600136012713	-55.9474932903011	
1032800000	-6.74290192880553	-53.2767437282729	-32.5515285057456	-148.02304921335	-32.5934992964692	-147.660109552474	-6.00100325692484	-56.1183336596018	
1033600000	-6.74397858577264	-53.2402173574135	-32.5746908299029	-151.877630212109	-32.613800251067	-151.45059460406	-6.00594665565044	-56.2739605366659	
1034400000	-6.74498667563926	-53.1867131053399	-32.5963529861435	-155.782614425882	-32.6355979096492	-155.309793631136	-6.01107690901531	-56.4271332885902	
1035200000	-6.74565798879227	-53.1267843952571	-32.6204341907975	-159.686796583735	-32.6556662837135	-159.189379745012	-6.01639837729221	-56.5696062734641	
1036000000	-6.74601595102938	-53.0672796563621	-32.6466052519225	-163.6083588084	-32.6778570648157	-163.057575766487	-6.02132580756875	-56.6871491592497	
1036800000	-6.74619947948722	-53.025279221141	-32.6775383001313	-167.523675206205	-32.7039749604353	-166.952996876783	-6.02611899320274	-56.7889065376977	
1037600000	-6.746137239735	-52.9955279079163	-32.7093116845306	-171.47108530087	-32.7312641659911	-170.912593332806	-6.03045319462036	-56.8887513146845	
1038400000	-6.74567340941475	-52.9755856940571	-32.7392100271792	-175.460356123891	-32.75890705802	-174.893857655854	-6.03408907776106	-56.9815630668363	
1039200000	-6.74460755321965	-52.9611071038725	-32.7711214577326	-179.458358233495	-32.7925983387798	-178.877738824639	-6.03728215749444	-57.0831345802735	
1040000000	-6.74326777465619	-52.9539890816846	-32.8075484972318	176.618457616473	-32.8265250382397	177.180697735135	-6.03995402785975	-57.2167488638603	
1040800000	-6.74113525563839	-52.956978845793	-32.8501276946197	172.678004643724	-32.8684721269877	173.258608054151	-6.04239606212008	-57.3641533275164	
1041600000	-6.73858606760268	-52.9736618465075	-32.8951944727063	168.723922564941	-32.9144449308356	169.312522307415	-6.04451443863516	-57.510093885495	
1042400000	-6.73554405660985	-53.0051006587898	-32.9476302318294	164.649158463037	-32.969015846173	165.268452802325	-6.04642605407166	-57.6328244762011	
1043200000	-6.73219227465478	-53.0460834189669	-33.0053457249334	160.406229765244	-33.0288125031199	161.058522696238	-6.04805502197798	-57.7276018498713	
1044000000	-6.72864158172562	-53.0948848289719	-33.0869556902392	156.03744490409	-33.1082390989176	156.657904940055	-6.0500494864759	-57.7761564112078	
1044800000	-6.72489879702988	-53.1511681657164	-33.1790998515998	151.559848467961	-33.1996891402817	152.197833973686	-6.0527745486346	-57.8092265102361	
1045600000	-6.72075356736666	-53.2227266118925	-33.2875797538858	147.103687755265	-33.3154554472874	147.751283473465	-6.05616507190384	-57.8521613057604	
1046400000	-6.71722471491828	-53.2953382814226	-33.4243139040073	142.664539947029	-33.4307877410466	143.332404406975	-6.06013168663008	-57.9088401851957	
1047200000	-6.71409984768098	-53.3676967782776	-33.5617735600405	138.244477033014	-33.5597004563231	138.891587966142	-6.06455775381514	-57.9786337288934	
1048000000	-6.71117333625709	-53.4404129139905	-33.6960461443288	133.797544746193	-33.7036990166236	134.462182563549	-6.06919668641576	-58.0670911420374	
1048800000	-6.70885044344542	-53.5146052684863	-33.8140319512155	129.331571981342	-33.8164497453819	129.998035484124	-6.07376905154267	-58.1728817225471	
1049600000	-6.70670448464391	-53.5930700123535	-33.9303158437986	124.765775737062	-33.9212432343026	125.410436705185	-6.07826537701722	-58.2805048367536	
1050400000	-6.70477158905725	-53.6781731774866	-34.0256959844826	120.143322505922	-34.006645847773	120.750807816027	-6.08316627094319	-58.3874097994622	
1051200000	-6.70313876433401	-53.7760916975283	-34.1081795056727	115.36111380859	-34.0823407223256	115.921043417163	-6.08796577584544	-58.4824639716484	
1052000000	-6.70174215799184	-53.8905868579793	-34.1821828915482	110.31845835275	-34.1461151767523	110.816861442933	-6.09256656140999	-58.5645013758521	
1052800000	-6.70065431431398	-54.02481384625	-34.2407132668606	105.139256761531	-34.2085377038924	105.463252044365	-6.09702620669925	-58.6336221989559	
1053600000	-6.69990893412173	-54.1727445723126	-34.2934799707393	99.6598991186031	-34.2610095100009	99.5992732254667	-6.1010939826817	-58.6998572748046	
1054400000	-6.69938694052689	-54.3396245531545	-34.3429991298349	92.9475811401654	-34.3049104766576	92.6896807392762	-6.10464227434039	-58.7714988777064	
1055200000	-6.69905314360394	-54.5231898274382	-34.3859148694746	86.0831248718505	-34.3487204032903	85.6455953103321	-6.10686834207963	-58.851977801746	
1056000000	-6.69900937584058	-54.7030154694594	-34.4283805165637	79.0524097768077	-34.3881229318502	78.4644163904363	-6.1084583950727	-58.9447260881485	
1056800000	-6.69908106151063	-54.8784988984563	-34.4676151806441	71.8914460999798	-34.4269268018637	71.2353889742466	-6.10992137808327	-59.0557413647161	
1057600000	-6.69938079573235	-55.0497852535295	-34.5080796396404	64.692420799507	-34.4631706553823	63.9356449691458	-6.11119593775724	-59.1836791665527	
1058400000	-6.70001436401222	-55.2182899652626	-34.5453218682717	57.4480970099431	-34.5001731463515	56.6332300084371	-6.11255543512083	-59.3053570695149	
1059200000	-6.70127737696011	-55.3851898376597	-34.5775990824922	50.2405941383718	-34.5390620405285	49.3546502076679	-6.11400141963093	-59.4200664575714	
1060000000	-6.70294131617295	-55.5422611295052	-34.6109284275179	43.0821373380331	-34.5787689840617	42.1263198810066	-6.1158534997319	-59.5261682060215	
1060800000	-6.70499540313091	-55.681640973031	-34.6421865441472	37.4763931302134	-34.6153587304187	36.4765686479413	-6.11813579934193	-59.6172798075165	
1061600000	-6.70728566041475	-55.8175141540025	-34.6703625700951	31.8834489782604	-34.645891527528	30.8845482121133	-6.12099946531294	-59.7058313781651	
1062400000	-6.70954458073953	-55.94891101498	-34.6988597757886	26.2836231380227	-34.6753356478145	25.3047231286446	-6.12395610709938	-59.7918230846693	
1063200000	-6.71206577500718	-56.0759801491422	-34.7261474415076	20.6828433673903	-34.7058607533144	19.6982677518353	-6.12734544906092	-59.8787765044823	
1064000000	-6.71473797239633	-56.1973939276321	-34.7534417601358	15.0841512034211	-34.7367276210352	14.0841286348477	-6.13065164045014	-59.9680098817763	
1064800000	-6.71731578959016	-56.3100729446994	-34.7828822030692	9.51042503612314	-34.7654107312838	8.49770290120654	-6.1336380078638	-60.0602257120474	
1065600000	-6.71918239406965	-56.4161735159981	-34.8073295473884	3.93947540768045	-34.7910487366412	2.91993936288458	-6.13608689634007	-60.1540215489466	
1066400000	-6.72093006579817	-56.5195326760409	-34.8302342397395	-1.61264134140845	-34.8161547726626	-2.65679723611657	-6.13813200843022	-60.2512940713653	
1067200000	-6.72209896287203	-56.6192577180414	-34.8505548581774	-7.11477026492287	-34.8360652943832	-8.20372945636575	-6.14001456236452	-60.3534053967188	
1068000000	-6.72308381695282	-56.7185679068939	-34.868651140905	-12.5819367575025	-34.856546012596	-13.727584633561	-6.14191397299125	-60.4592294452965	
1068800000	-6.72380188587058	-56.8169632357316	-34.8804668570887	-18.0722056015003	-34.8676258301444	-19.2221982735927	-6.14364126198401	-60.5722050029772	
1069600000	-6.72458153371495	-56.9171704917644	-34.8894805085627	-23.5597163074061	-34.8754716820085	-24.7271514389473	-6.14475619414252	-60.6910826776561	
1070400000	-6.72560587824746	-57.0207874584508	-34.88986773029	-29.0368382999882	-34.873436073558	-30.2182689925891	-6.14452095464831	-60.8076862517315	
1071200000	-6.72683573011196	-57.1269741979212	-34.8833113060283	-34.5323076148492	-34.8688192490012	-35.691319008441	-6.14314447035534	-60.9184900580251	
1072000000	-6.72819411073621	-57.2314506474186	-34.8761241579324	-40.0299186865166	-34.8612791705616	-41.194814895034	-6.1412302275441	-61.0284266159482	
1072800000	-6.73012319829953	-57.333359940841	-34.8662699893437	-45.5307911858067	-34.8478062550479	-46.7041776686369	-6.13920578914929	-61.1343199533822	
1073600000	-6.73209225332658	-57.4309523126494	-34.8515790678883	-51.0575185118579	-34.8344615556588	-52.2138535117916	-6.13719714814801	-61.2372071699248	
1074400000	-6.73460154350081	-57.5257797568437	-34.8329165508368	-56.5756168723523	-34.8139659325809	-57.7423101362648	-6.13471530034933	-61.3382629166235	
1075200000	-6.73803674371154	-57.6168489650834	-34.8152488761441	-62.1039141645247	-34.7942832666753	-63.2555274603992	-6.13260009691392	-61.4339562761559	
1076000000	-6.74128927399324	-57.7074271542468	-34.7903457601494	-67.6312768486678	-34.7711540366879	-68.802144383785	-6.13094884582163	-61.5302671113016	
1076800000	-6.74474310167297	-57.7942028981504	-34.7618652331301	-73.1464143585555	-34.7476161439768	-74.3419781420641	-6.12867654914664	-61.626973073738	
1077600000	-6.74842388079223	-57.8779830483415	-34.7281128749438	-78.7046519368984	-34.7154585698009	-79.8793995210072	-6.12655775939875	-61.7248136625307	
1078400000	-6.75228311245646	-57.9594829117734	-34.6899983016869	-84.2586937248556	-34.6756631980569	-85.448223243345	-6.12478673784744	-61.8228509134696	
1079200000	-6.75655869947473	-58.0371127397508	-34.6493248086136	-89.8473970764103	-34.6376566049145	-91.0525267005694	-6.12398568083664	-61.9246578303847	
1080000000	-6.76069494875066	-58.1117409057865	-34.6051110417823	-95.4458509305871	-34.5946400689235	-96.6582478548937	-6.12369300879229	-62.0300415857271	
1080800000	-6.76497656393077	-58.1841852540856	-34.5614515356441	-101.059933658607	-34.5522033636006	-102.298166261629	-6.12414924450234	-62.1426194835007	
1081600000	-6.76977385837618	-58.2530834696029	-34.519207239674	-106.699214298944	-34.5076910866125	-107.942685444798	-6.12559665575306	-62.2618182778341	
1082400000	-6.77483674183561	-58.3195904227081	-34.471040148989	-112.344062938727	-34.4665953768314	-113.622659405904	-6.12738803705229	-62.3867313735363	
1083200000	-6.78025715737621	-58.3807742602711	-34.4242930917443	-118.018296096028	-34.4210158284871	-119.284249277613	-6.12944919390074	-62.5163923686743	
1084000000	-6.78580748557914	-58.438855540713	-34.3778519322118	-123.698844881334	-34.3766994512296	-124.926985633028	-6.13154519411123	-62.6495140507624	
1084800000	-6.79115114303835	-58.490807102176	-34.3267848510494	-129.382021916709	-34.3259680874936	-130.592177968415	-6.13393230237913	-62.7862232354412	
1085600000	-6.79614780416303	-58.538975908944	-34.2706162856582	-135.060552050586	-34.2664689931268	-136.271304099017	-6.1358845799861	-62.9254350475935	
1086400000	-6.80112303193244	-58.5851782461372	-34.2062116200353	-140.754583380125	-34.2022789106186	-141.982188871298	-6.13768246089746	-63.0654047352381	
1087200000	-6.80577025119968	-58.6306516018581	-34.1320553254591	-146.510912216382	-34.129255441852	-147.715953505634	-6.1387554833781	-63.2057939588886	
1088000000	-6.80950043342469	-58.6728506714763	-34.0553260447962	-152.225527456754	-34.0517534599196	-153.475637901921	-6.13920524436413	-63.3436771376015	
1088800000	-6.8129947874546	-58.7106760065593	-33.9796046247179	-158.022645487375	-33.9746279108299	-159.302670578992	-6.13905487890968	-63.477080861499	
1089600000	-6.81641226259036	-58.7468649371012	-33.8961083628715	-163.838819503387	-33.8921569429584	-165.087960519011	-6.13882144944296	-63.6041372791497	
1090400000	-6.81968653411454	-58.7824148168818	-33.8159396279927	-169.680110206924	-33.8071687603743	-170.972859738367	-6.13842975294142	-63.7260472691193	
1091200000	-6.82277528732215	-58.8168519091006	-33.7228545914279	-175.506650679349	-33.7168027569006	-176.862638445028	-6.13750534597702	-63.8434678394296	
1092000000	-6.8249578047783	-58.8554510463577	-33.625516030498	178.499780358072	-33.6185409575134	177.20458860161	-6.13672264606689	-63.9538044946588	
1092800000	-6.82667128275344	-58.896846003564	-33.5252726230985	172.405354609972	-33.5212404569635	171.190830288891	-6.13653136434105	-64.0576832820518	
1093600000	-6.8279252392229	-58.9405511980929	-33.4300069320868	166.215497482354	-33.4325984955276	165.023721227721	-6.13690168899291	-64.1604181559396	
1094400000	-6.82917630480152	-58.9852031664332	-33.3522349307606	159.948928721178	-33.3476518624871	158.81119564432	-6.13748865328109	-64.2641980081093	
1095200000	-6.83056171878385	-59.0323916549954	-33.2925098158802	153.688464178973	-33.280188294828	152.550651164261	-6.13853840176086	-64.3662199920956	
1096000000	-6.83226367109146	-59.0792943409956	-33.241862878622	147.424100992331	-33.2232225239304	146.287773400325	-6.14049582204275	-64.4740207293566	
1096800000	-6.83439588745359	-59.1240610386449	-33.19651346383	141.178824435251	-33.1743890631736	140.049041962726	-6.14246960607767	-64.5873479063632	
1097600000	-6.83653256313279	-59.1693096176601	-33.1554631384892	134.948552447715	-33.1287771348016	133.780034034709	-6.14519300662839	-64.7018477870124	
1098400000	-6.83855977367395	-59.2147436350907	-33.1147793019958	128.719530544746	-33.0902592206584	127.538238958568	-6.14805344739179	-64.8153826934571	
1099200000	-6.84057778495058	-59.2600401535782	-33.0796644322305	122.511935924575	-33.0499147953989	121.31739253894	-6.15150451878756	-64.9312026785908	
1100000000	-6.84247192268387	-59.3071716363811	-33.0424385086703	116.301351180537	-33.0123960787523	115.096872119046	-6.15464650712774	-65.0542486306509	
