!Keysight Technologies N9915A: A.10.33
!Date: Tuesday, 12 May 2020 14:22:14
!Timezone: (UTC+08:00) Perth
!Model: N9915A
!Serial: MY53102697
!GPS Latitude: 
!GPS Longitude: 
!GPS TimeStamp: 0001-01-01 00:00:00Z
!GPS Seconds Since Last Read: 0
!CHECKSUM:1102834888
!Correction: S11(ON U)S21(ON U)S12(ON U)S22(ON U)
!S2P File: Measurements:S11,S21,S12,S22:
# Hz S DB R 50
1000000000	-6.67005746187185	-45.1467509303385	-32.9405012842396	-16.9794987722894	-32.4764840513966	-16.5567373957814	-5.89707176499704	-52.248435088065	
1000800000	-6.67272473735187	-45.234593996044	-32.9312728739802	-20.8651026119569	-32.4686300167111	-20.0911559821226	-5.89663263098348	-52.9523776865988	
1001600000	-6.67546029131595	-45.3392559660097	-32.9211881339137	-25.0147458913886	-32.4591654836544	-24.484551792526	-5.89698050076357	-53.598869876622	
1002400000	-6.67829407381091	-45.5721275696315	-32.9110010181221	-29.4444475487318	-32.4491783291484	-29.5210928470845	-5.89793614436744	-53.9936463738179	
1003200000	-6.68149565553636	-45.8243444645663	-32.8974880402565	-35.0526478205749	-32.440052689317	-34.5170997163715	-5.8995363632258	-54.0477532583882	
1004000000	-6.68505211361709	-46.1261889711923	-32.8849609094597	-40.1896158914689	-32.4308225891123	-39.5725142600971	-5.90142549556386	-53.925429214523	
1004800000	-6.68894218569127	-46.4647786046688	-32.8719759564546	-44.8917709043106	-32.420446081136	-44.0653146485032	-5.90383375582318	-53.677121005391	
1005600000	-6.69236278229037	-46.8372946480208	-32.8607046065507	-49.11762357329	-32.409668953408	-48.3447790197416	-5.90703004435847	-53.4455115216775	
1006400000	-6.69521513645596	-47.2546635279497	-32.8474367407514	-53.1540955749292	-32.4004342723897	-52.640843263273	-5.91004383729366	-53.2897745175916	
1007200000	-6.69814383579168	-47.7110962949904	-32.8372374004789	-57.3628817199061	-32.3912778950147	-57.197267476564	-5.91294230632022	-53.1823686111843	
1008000000	-6.70084717404609	-48.1842068094112	-32.8274726091986	-62.2316634314133	-32.38503628816	-62.0963126054635	-5.91561145047512	-53.1383401176707	
1008800000	-6.70370306625018	-48.6473838806957	-32.8197569917195	-66.8682796913239	-32.3796192931935	-66.8728523270246	-5.91755674184371	-53.1606896745737	
1009600000	-6.70684059107973	-49.0685748453233	-32.8145415325364	-71.3261548176891	-32.3740336858467	-71.4902719905055	-5.91901386509047	-53.2074992231932	
1010400000	-6.70989272353129	-49.4126012376184	-32.8101594423773	-75.9335099494676	-32.3702696105656	-75.8357140520802	-5.9199433818664	-53.2327206843819	
1011200000	-6.71251365571314	-49.6773015782769	-32.8070960244282	-80.5384989405016	-32.3664519462968	-80.1640793847842	-5.9207888789369	-53.2117700451587	
1012000000	-6.71461865335695	-49.9025068711637	-32.8025304514871	-85.1594271926918	-32.3623999719421	-84.4689649449792	-5.92161472574425	-53.1695780809681	
1012800000	-6.71638823307995	-50.1273657806132	-32.797898053408	-89.9891124243335	-32.3599202666289	-88.7900604535772	-5.92225854762097	-53.1315224038186	
1013600000	-6.71818454675948	-50.3588934353678	-32.7923266904767	-94.4510594903145	-32.3553681590336	-92.7112611090491	-5.92358772830408	-53.0677993764487	
1014400000	-6.71987750544326	-50.6386746432568	-32.7865344731765	-98.0105342433386	-32.3497484578888	-96.1076104431389	-5.92573209077901	-52.9919026098292	
1015200000	-6.72190892654922	-50.954161801611	-32.7782674284094	-101.003810825512	-32.3433980636181	-98.8756252748063	-5.92791859427404	-52.9671466678834	
1016000000	-6.72410392793442	-51.2401577859666	-32.7765813283197	-102.051148849619	-32.3391643613883	-100.980831778251	-5.92979670204078	-53.0351104381096	
1016800000	-6.72612627391986	-51.498621866605	-32.772327780795	-102.080739186389	-32.3342903391926	-101.827349264504	-5.93199870025308	-53.1781931179363	
1017600000	-6.72795169645537	-51.7404850588105	-32.7697131189207	-102.357397948677	-32.3314678531223	-102.341861569659	-5.9341937119557	-53.3765018848011	
1018400000	-6.72962082056214	-51.9696395297427	-32.7676131219209	-103.166755043444	-32.3302330682513	-103.24527522818	-5.93656251173495	-53.5667597768507	
1019200000	-6.73102449132552	-52.1876139817766	-32.7643107511969	-104.568383954054	-32.327103797183	-104.488120193683	-5.93917321740639	-53.7716699818267	
1020000000	-6.73230634938587	-52.3823390668934	-32.7621047391401	-106.19886946703	-32.3253018772451	-106.162439657241	-5.94234453037068	-53.9545122679732	
1020800000	-6.73336166532276	-52.5418188096772	-32.7564593205996	-108.152589088506	-32.3223640710701	-108.130194345654	-5.94619500918819	-54.1059310933748	
1021600000	-6.73415340667451	-52.6381064560708	-32.7489963484195	-110.302427777047	-32.3184713733594	-110.303158792412	-5.95065793718975	-54.2140202524184	
1022400000	-6.73504214872194	-52.7154494437813	-32.7411604089217	-112.539024246187	-32.3141949514805	-112.572367097906	-5.95555425335217	-54.3004569809002	
1023200000	-6.73604545689815	-52.7903759113515	-32.7315329050318	-114.743386547222	-32.3071285087055	-114.934651050088	-5.96065185814555	-54.3945586663362	
1024000000	-6.7368809792381	-52.8793474357099	-32.7200425400306	-117.03628848697	-32.2979285168767	-117.370082307283	-5.96583613955014	-54.4905982592437	
1024800000	-6.73787778374384	-52.977879178251	-32.7065498660903	-119.351909118657	-32.2877233285647	-119.834926096254	-5.97085886041029	-54.5929315173539	
1025600000	-6.73886612920919	-53.0483130224717	-32.6955563065045	-121.778782036674	-32.2766897082859	-122.365544192381	-5.97480564671695	-54.7428228130695	
1026400000	-6.73996422298738	-53.1132529103151	-32.6852490961367	-124.237910442135	-32.2658323804256	-124.957917928617	-5.97826184376312	-54.91507072226	
1027200000	-6.74106550647806	-53.1667490820956	-32.6780110821436	-126.866507425705	-32.2580982090987	-127.702162506475	-5.98167403279777	-55.0913286018098	
1028000000	-6.74225037280448	-53.2006726511042	-32.6715537632439	-129.789508114279	-32.2541198423766	-130.665868658545	-5.98492205485787	-55.2505055821327	
1028800000	-6.74325847935544	-53.2163239510907	-32.6711521611557	-132.895087823894	-32.2530514813158	-133.802207057889	-5.98738216934948	-55.3947377952499	
1029600000	-6.74422100649264	-53.2136818953892	-32.6747408773156	-136.108139706385	-32.2576086791322	-137.021660367285	-5.98896684049636	-55.5245455099651	
1030400000	-6.74531454515494	-53.198535899467	-32.6804793551416	-139.417466710707	-32.2649554059755	-140.341393526424	-5.98944218422224	-55.64133741521	
1031200000	-6.74657240968028	-53.1834097969674	-32.6906569904012	-142.788725507719	-32.2765299843628	-143.747701711128	-5.98949407906611	-55.751966752906	
1032000000	-6.7478573091487	-53.1586854548606	-32.7029339511392	-146.329330209003	-32.2936159520024	-147.276900657867	-5.98956312721772	-55.8690966225361	
1032800000	-6.74918413721882	-53.1377274049246	-32.7173869680717	-149.952364922256	-32.3106424052077	-150.873945968437	-5.98919950886376	-55.995985621453	
1033600000	-6.75061350723383	-53.1171434391611	-32.7354708113371	-153.740588881658	-32.3282512398914	-154.582483136318	-5.98901966287738	-56.1745287289949	
1034400000	-6.7518333875484	-53.0819446942084	-32.7522926930368	-157.5943585609	-32.3492238251114	-158.372449260184	-5.98913213147465	-56.3759157932578	
1035200000	-6.75291607515158	-53.0370005819086	-32.7685834806673	-161.438987351038	-32.3737673314947	-162.16787928586	-5.99022536630415	-56.5655667891089	
1036000000	-6.75364458331225	-52.9921018288873	-32.7898208067227	-165.278023221944	-32.3995188621396	-165.986486272437	-5.99187381628807	-56.7303903080185	
1036800000	-6.75414348122971	-52.9636133360126	-32.8066246468095	-169.084556932468	-32.4238417740854	-169.788505898209	-5.99381415496227	-56.8703374377272	
1037600000	-6.75435015182947	-52.946282472125	-32.8335993793992	-172.922606307784	-32.4538617138242	-173.615863928319	-5.99620299022208	-56.9816833610368	
1038400000	-6.75425259783146	-52.932252055841	-32.8590313921219	-176.820761711661	-32.4855232015042	-177.516922062491	-5.99870044383513	-57.0554040868826	
1039200000	-6.75354234691751	-52.9204295064047	-32.889788533288	179.263651099636	-32.5212520397186	178.547176203053	-6.0012329964156	-57.1086323567631	
1040000000	-6.7523371457979	-52.9163045235066	-32.9219903898797	175.383076955844	-32.5553039620302	174.591245292464	-6.00352309166074	-57.1779236949421	
1040800000	-6.75048425844098	-52.9251122666065	-32.9571365055156	171.506066049658	-32.5973651241796	170.697469760217	-6.0058358262165	-57.2766409749939	
1041600000	-6.74832123582322	-52.9484477558484	-32.9940827589525	167.55551815337	-32.6422618159832	166.771326039731	-6.00774481760042	-57.3957895878379	
1042400000	-6.74568419162458	-52.9896119003433	-33.0442973405011	163.522289550344	-32.6935474610312	162.731188202171	-6.00920779493526	-57.5196389331607	
1043200000	-6.74268209937658	-53.0406785393092	-33.0986132416812	159.32237552231	-32.7574579217112	158.536522369911	-6.01019807942089	-57.6291587174376	
1044000000	-6.73943185028826	-53.0983007005872	-33.1669674892306	154.971641080376	-32.8314935891504	154.206128639018	-6.01079624535557	-57.708478282922	
1044800000	-6.73608750579726	-53.1624149146525	-33.2343128574911	150.563306468014	-32.9155038513948	149.801601306653	-6.01107048340792	-57.7731049111735	
1045600000	-6.73233283760355	-53.2404062617974	-33.3180254785971	146.180362933343	-33.0221785612442	145.365965774356	-6.01120766641326	-57.8296245150159	
1046400000	-6.72919283974925	-53.3188987825226	-33.4346360765875	141.852988185487	-33.1465128871612	140.940219604697	-6.01073248801009	-57.8766167824194	
1047200000	-6.72633253302716	-53.3946817086265	-33.5564148033462	137.542988037039	-33.2768902097976	136.510559607012	-6.00922430824912	-57.9230187547824	
1048000000	-6.72354979416415	-53.4677293200212	-33.6854802877597	133.216223552076	-33.4276734948783	132.109991988617	-6.00748992921233	-57.9793121654685	
1048800000	-6.72125364691827	-53.5429176209346	-33.8583361207848	128.808593441128	-33.6470799009092	127.685283012362	-6.005667942222	-58.0525269081646	
1049600000	-6.71913619429343	-53.6214476790008	-34.0036930750434	124.332640573964	-33.80365929388	123.215461449187	-6.0042160779558	-58.135291218247	
1050400000	-6.71722989285511	-53.7059977485134	-34.1530187159121	119.793822057758	-33.9518658093984	118.684114532075	-6.00316405926417	-58.2262402927591	
1051200000	-6.71530868830786	-53.8028725224237	-34.2765044586864	115.242353001217	-34.0651255843673	114.066494511995	-6.00270570118018	-58.3241405698875	
1052000000	-6.7135976869167	-53.9149647984621	-34.3585957785062	110.608153963661	-34.1542028212938	109.353533197128	-6.00266800804497	-58.4204806870936	
1052800000	-6.71213931951137	-54.0429466318919	-34.4432554927414	105.996350596617	-34.2375015106738	104.595125524372	-6.00327343508327	-58.515521136656	
1053600000	-6.71091798819534	-54.1822688367868	-34.5124877141552	101.228649219661	-34.3088675765934	100.219985639513	-6.00384906930326	-58.6027707037435	
1054400000	-6.70988988703579	-54.338945495436	-34.5646626315101	96.7243056426777	-34.3707300699712	95.7322983115491	-6.00501176391808	-58.6747679027786	
1055200000	-6.70907237396115	-54.5100495913266	-34.6124838055498	90.5306959568783	-34.4278155350901	93.3409697983254	-6.00595182720188	-58.7384554448099	
1056000000	-6.70837144952007	-54.677224718881	-34.6537534502155	83.3387690001845	-34.4763964391909	90.9805392714337	-6.00645395145513	-58.8070231669795	
1056800000	-6.70783882759152	-54.8426061965179	-34.6948299485695	75.951599280631	-34.5278678076287	88.5573472341903	-6.00737823978082	-58.8924527337222	
1057600000	-6.70749396939371	-55.0049577319106	-34.7416721606911	68.5374852139933	-34.572253519658	85.8806338077328	-6.00838506890471	-59.0020075408932	
1058400000	-6.70753167357002	-55.1656994741199	-34.7816364662934	61.1256137674967	-34.6189639208595	83.0435039036932	-6.00920094083812	-59.1185779227139	
1059200000	-6.7080228477144	-55.3248756631989	-34.8265570175884	53.6504379696235	-34.6638882064162	80.102395507823	-6.00952690952857	-59.2497191039673	
1060000000	-6.70874045741935	-55.4756961505984	-34.8657142869266	46.3073241688925	-34.7048180880385	77.1371244261402	-6.0096370243405	-59.3857914488641	
1060800000	-6.70982352106977	-55.614224247484	-34.9054449365294	40.6831190551601	-34.7486081484935	73.8779512147545	-6.00922097300019	-59.5008924792461	
1061600000	-6.71087526292002	-55.7492409414639	-34.9457011109407	35.0747443121759	-34.7860461510123	70.6275215715037	-6.00873398854126	-59.6092469458704	
1062400000	-6.71213963349635	-55.8797724138535	-34.9769891326332	29.4461568514945	-34.8202876772239	67.3794499820668	-6.00829005143327	-59.7095054421237	
1063200000	-6.71383312893386	-56.0082809104147	-35.010452555392	23.7946946288643	-34.8533331722162	64.1117734912276	-6.00763694088286	-59.8045524302814	
1064000000	-6.71580238381015	-56.1313484930093	-35.045755674753	18.1591725356476	-34.88553243004	60.8405279213541	-6.00723529070784	-59.8927814179897	
1064800000	-6.71737092124146	-56.2478110347132	-35.0870655749377	12.5068832873479	-34.9188373547531	57.5708315688141	-6.00675988046679	-59.9756783300962	
1065600000	-6.71882714675896	-56.3552470917495	-35.1227603646957	6.85750815121833	-34.9484668729576	54.318076487627	-6.00716498800163	-60.060344791048	
1066400000	-6.71996790085835	-56.4614315913959	-35.1561640268675	1.25377554993355	-34.9756488903759	51.0775274799128	-6.00822932321124	-60.1450638136353	
1067200000	-6.72076358907492	-56.5651336696419	-35.1930071214349	-4.30504122804592	-35.0070774345099	47.8248366603187	-6.00985522766448	-60.2328452787158	
1068000000	-6.72135821465332	-56.6662865553605	-35.2267315587981	-9.85665347418541	-35.0384677800279	44.6360123883205	-6.01201672191675	-60.3250425365944	
1068800000	-6.72177695586383	-56.768450659902	-35.252046981039	-15.3597526591319	-35.0667922788934	41.462555681765	-6.01534623272101	-60.4262502540728	
1069600000	-6.72235212478404	-56.8715612562368	-35.2664145615149	-20.8559091784736	-35.0875859213965	38.3023283240594	-6.01879545607843	-60.5332379646191	
1070400000	-6.7230524277653	-56.9783332137913	-35.2785652430414	-26.356431293684	-35.1033405635801	35.1556581189744	-6.02190049182773	-60.6427099260275	
1071200000	-6.7240838544173	-57.0872017536898	-35.2849898677553	-31.8582593498617	-35.1166917823578	32.0221446808242	-6.02470524194661	-60.7537114373615	
1072000000	-6.725334252713	-57.1939809863276	-35.2931497576489	-37.3755628603604	-35.1246713441809	28.8787259845696	-6.0275121674107	-60.8672199462367	
1072800000	-6.72717621823356	-57.2965134073096	-35.2917788654314	-42.8906335094853	-35.1298212545606	25.7514975033523	-6.03062516713183	-60.9818216096504	
1073600000	-6.72904066684867	-57.3947990045207	-35.289159401721	-48.3933503445042	-35.13073370113	22.6015635511518	-6.03350793243574	-61.1006739359731	
1074400000	-6.73137180338653	-57.4894294501424	-35.2795083546242	-53.9363500071022	-35.1274770007064	19.4662164099941	-6.03551511257107	-61.2225936279152	
1075200000	-6.73446243671486	-57.5810395897438	-35.2676965472671	-59.4492466266835	-35.1204152856688	16.3248747105957	-6.03666279698873	-61.3411436356327	
1076000000	-6.73755611896276	-57.6724474057823	-35.2495580891219	-64.9648090553152	-35.1062764716958	13.1993588816791	-6.0370995288105	-61.4602525987697	
1076800000	-6.74067377631648	-57.7586500782288	-35.2334795577754	-70.469149843585	-35.0900754104435	10.0578075480522	-6.03610108401567	-61.5780114033609	
1077600000	-6.74395064726996	-57.8434805741973	-35.2063471262753	-76.0005241877255	-35.0686327986779	6.91994314898159	-6.03424309919725	-61.6913452715163	
1078400000	-6.74732828292693	-57.9251748664763	-35.1776684202066	-81.5309479425197	-35.0425196703651	3.78116872848631	-6.03194232486141	-61.8008614350177	
1079200000	-6.75100245450038	-58.0042592700531	-35.1441060744748	-87.071393531988	-35.0108543591092	0.621483573727232	-6.02940959483527	-61.9072646729017	
1080000000	-6.75469826843858	-58.0806428280979	-35.1063614685091	-92.6463415499412	-34.9751866730508	-2.55985892177506	-6.02722036022873	-62.0127634106003	
1080800000	-6.75862281382281	-58.1550494356106	-35.067778388742	-98.2281841225299	-34.9374486963318	-5.79162367870163	-6.02549882737847	-62.1149531000882	
1081600000	-6.76297162467669	-58.2270271061194	-35.0266924776514	-103.829113946839	-34.8958940602003	-9.0130208872713	-6.02417817404606	-62.2172652467536	
1082400000	-6.7678109572436	-58.2976069404179	-34.9892691188263	-109.427190318396	-34.8571231628973	-12.2735504021462	-6.02361050096201	-62.3215131106007	
1083200000	-6.77311279352298	-58.3617286766629	-34.9418264070487	-115.05233725254	-34.8115372402831	-15.5387841734698	-6.02370535598539	-62.4274935702726	
1084000000	-6.77830196825542	-58.4233746528802	-34.9019875830559	-120.670240492959	-34.7684387538203	-18.8159977118164	-6.02436993857663	-62.5335653554816	
1084800000	-6.7834550878986	-58.4801445789367	-34.8498547227819	-126.291679691988	-34.7235462084136	-22.0989890344152	-6.02579794796159	-62.6392686692357	
1085600000	-6.78837032447543	-58.5325685237055	-34.8003081762097	-131.903517058764	-34.6740095191965	-25.3723696870343	-6.02741345462298	-62.7488673504014	
1086400000	-6.79336782881439	-58.583797155929	-34.7334892327004	-137.500797180868	-34.6164179631782	-28.6286396436906	-6.02994715352502	-62.8614291879763	
1087200000	-6.79824677810886	-58.6328473585709	-34.6747691430987	-143.141969184337	-34.5549190034488	-31.907046866871	-6.03278009121635	-62.9798395927358	
1088000000	-6.80245256322631	-58.6788109754146	-34.6045767323131	-148.768310914368	-34.4834953009579	-35.2194078259383	-6.035537888334	-63.1069028730299	
1088800000	-6.80630802776071	-58.7207838120177	-34.5318870654286	-154.4990589402	-34.417145957793	-38.544255283271	-6.03770818377735	-63.2367530317342	
1089600000	-6.81000876518813	-58.7588518255588	-34.4484679047954	-160.211678495448	-34.3352012111633	-41.8940087126271	-6.0390394184184	-63.3718088451307	
1090400000	-6.81353174894141	-58.7966245891052	-34.3608634798803	-166.016660143116	-34.2545024100183	-45.3274157722736	-6.03989262588509	-63.5072393936527	
1091200000	-6.81682022462505	-58.8324621953319	-34.2695842517559	-171.77179645261	-34.1738610321307	-48.7817114968972	-6.03980840222476	-63.6461041888795	
1092000000	-6.81954712897895	-58.8712871958036	-34.1585039877434	-177.711823192552	-34.0843604285639	-52.272805423066	-6.03922005085801	-63.7826720388849	
1092800000	-6.82176911585261	-58.9131162715053	-34.0524735081196	176.089637477856	-33.9868584508585	-55.9030775710786	-6.03760202636996	-63.917027377838	
1093600000	-6.8232063584142	-58.9567723458105	-33.9595162169684	169.857948003856	-33.8957780696511	-59.6047498361324	-6.03543929954181	-64.0448538324575	
1094400000	-6.82470906822308	-59.0006950789066	-33.8842786735138	163.572564051684	-33.8162040734963	-63.4265447156731	-6.03308854421985	-64.1676804650804	
1095200000	-6.82616726758628	-59.0469172971524	-33.821284431761	157.29885399446	-33.748680263869	-67.2814950249764	-6.03078083349241	-64.2809705188217	
1096000000	-6.82808986443554	-59.0934344249208	-33.7714824992955	151.02683247531	-33.6933600128984	-71.1517963187492	-6.02869975717241	-64.3945760003246	
1096800000	-6.83037329960156	-59.1399764829194	-33.7263454734321	144.769867993303	-33.6427953376847	-75.0136165017118	-6.02708945374285	-64.5065352480954	
1097600000	-6.83250292531829	-59.1859244888487	-33.6860394723349	138.527132615638	-33.5975084472333	-78.8280986501189	-6.02662081688097	-64.6122006797207	
1098400000	-6.834527693102	-59.2318949505328	-33.6443798292372	132.326127125992	-33.5548820133678	-82.6659147404209	-6.02677975434483	-64.7124517459971	
1099200000	-6.83640720935876	-59.2779377439659	-33.6072606769783	126.132241397071	-33.5155447552242	-86.5017321315214	-6.02784981481787	-64.8092942509161	
1100000000	-6.83836404925412	-59.325068378354	-33.5717244929331	119.909635294448	-33.4761797549483	-90.3254531867938	-6.02967651394507	-64.9111807280712	
