!Keysight Technologies N9915A: A.10.33
!Date: Tuesday, 12 May 2020 14:28:03
!Timezone: (UTC+08:00) Perth
!Model: N9915A
!Serial: MY53102697
!GPS Latitude: 
!GPS Longitude: 
!GPS TimeStamp: 0001-01-01 00:00:00Z
!GPS Seconds Since Last Read: 0
!CHECKSUM:0548222725
!Correction: S11(ON U)S21(ON U)S12(ON U)S22(ON U)
!S2P File: Measurements:S11,S21,S12,S22:
# Hz S DB R 50
1000000000	-6.5215164671968	-44.0805843298769	-34.2260557258566	-26.9732296018618	-34.272000977658	-24.7372613791043	-5.84165791441896	-54.4202311406697	
1000800000	-6.52580846071195	-44.41806224561	-34.2189213418534	-35.457549354169	-34.2640794659888	-33.3340138306458	-5.84662071798559	-53.9233711451761	
1001600000	-6.53009200859066	-44.8020228470659	-34.2110762376284	-41.1320671609954	-34.2566268974334	-39.4963080397273	-5.85152652482619	-53.3495223073405	
1002400000	-6.53466418746259	-45.3118086609159	-34.2016526015995	-47.0426284964981	-34.2440032605263	-45.7216153797639	-5.85610383381103	-52.8113729923654	
1003200000	-6.53981402978843	-45.7942100083219	-34.1904224330363	-53.6067540223929	-34.2311852541488	-52.0236431908541	-5.86027114794001	-52.3693929925711	
1004000000	-6.54517363966538	-46.2644995761058	-34.1801262795808	-59.7166997954136	-34.2173517934311	-58.0871273368058	-5.8638531803329	-52.1899775279036	
1004800000	-6.55070233012	-46.7258742100204	-34.1670658708565	-65.3087249779422	-34.2029364329444	-63.870866508987	-5.86652340483769	-52.1904381337934	
1005600000	-6.55591170526649	-47.1851524267251	-34.1537374963331	-69.9237746676407	-34.189136082952	-69.2147054811621	-5.86896853259269	-52.4255308818676	
1006400000	-6.56090121594945	-47.6630543145813	-34.1403401016279	-73.9397081897833	-34.1754281304396	-73.5909475838085	-5.8705206593779	-52.7518907978233	
1007200000	-6.56580148051443	-48.1603487915568	-34.128774492161	-77.8702761622828	-34.163266577838	-77.5831553871691	-5.87172541195245	-53.0413872559647	
1008000000	-6.57054614224285	-48.6406819994084	-34.1176748710236	-81.8967838160333	-34.1533272514626	-81.3128261543818	-5.87319853370714	-53.1732052564985	
1008800000	-6.5755234897298	-49.069632598271	-34.1076605807245	-85.6272497051571	-34.1437851953133	-84.9053417164084	-5.87518240682578	-53.1303214984495	
1009600000	-6.5807837609632	-49.4191427231187	-34.0979784968812	-89.370795117479	-34.1351857420836	-88.581231956764	-5.87790966850577	-52.9579141398838	
1010400000	-6.58620530776668	-49.670526705759	-34.089683910737	-93.5409464833129	-34.1270265732016	-92.7187170888781	-5.88167282664865	-52.6791581889549	
1011200000	-6.59135189519628	-49.8467388403029	-34.0800644194434	-98.3861435277113	-34.1178875519598	-97.4763185362947	-5.8865642036629	-52.3774265655399	
1012000000	-6.59611208889806	-50.0148263850776	-34.0707521207865	-103.817319324088	-34.1090934915064	-102.912181419383	-5.89260725369172	-52.141617504861	
1012800000	-6.60072432706287	-50.2035882041354	-34.0600616218582	-109.868365998063	-34.1006452816823	-108.728187342866	-5.8997941298999	-52.0391975302157	
1013600000	-6.60554396756797	-50.422437917303	-34.0480844428744	-116.081264225456	-34.0885628225226	-114.815521736248	-5.90856170664663	-52.0718657310581	
1014400000	-6.61028480080411	-50.7079726756001	-34.0371048524006	-122.268273230215	-34.0762924705273	-120.720176919657	-5.91927908976323	-52.22511911288	
1015200000	-6.61545479575147	-51.0443104702073	-34.0246328376584	-128.549176712377	-34.0631827637709	-127.069846756844	-5.93051347774305	-52.4330225526061	
1016000000	-6.62070838206734	-51.35849564535	-34.0117103470978	-138.813215747026	-34.0513578615226	-135.368863113297	-5.94243702982358	-52.6249958183837	
1016800000	-6.62611665877192	-51.6658316472747	-34.0009794529421	-151.497592417809	-34.0389104951804	-146.830158337975	-5.9542009123466	-52.7932890996998	
1017600000	-6.63132363338947	-51.9633153080145	-33.9894337260781	-164.599014850182	-34.0287044240348	-160.164115831223	-5.96575444616878	-52.9279973726329	
1018400000	-6.63652330496353	-52.2413286535673	-33.9785999373348	-177.475528903276	-34.0196621149362	-173.210310569959	-5.97649315806658	-52.9951686812714	
1019200000	-6.64151619589504	-52.4924963084055	-33.9704590999939	169.774157815104	-34.0116446905627	173.999283290929	-5.98651655571908	-53.0375675560887	
1020000000	-6.64620612870185	-52.6983922604755	-33.9619369689169	157.46433101943	-34.0038876784693	161.522183830638	-5.99527360792107	-53.0923358100887	
1020800000	-6.65080140130641	-52.8598226506383	-33.9547919411378	145.744967212907	-33.9964230856527	149.491235798106	-6.00325260492371	-53.1914284833187	
1021600000	-6.65469771285085	-52.9564662552935	-33.947305275348	134.47097975678	-33.9886727613542	138.070897657342	-6.010428954582	-53.3426582308032	
1022400000	-6.65871749866333	-53.0297823694728	-33.938689726388	123.874423507198	-33.9809085607763	127.201958820925	-6.01667066360731	-53.5436079765285	
1023200000	-6.66257300054719	-53.0947695379539	-33.9279862438688	113.711978858418	-33.9705982812532	116.809110962524	-6.02260744617894	-53.7844103772116	
1024000000	-6.66618989150584	-53.1763260529679	-33.9174604214054	103.971192766969	-33.9598269879757	106.900977517332	-6.02811293298062	-54.0168463268041	
1024800000	-6.66964020697962	-53.2648426970128	-33.9028769428184	94.4945636747358	-33.9478336795504	97.4395107220116	-6.0333319517278	-54.218556354119	
1025600000	-6.67308913326147	-53.3279358458353	-33.8880685685784	85.3173237352478	-33.9344572364411	88.1361203938982	-6.0376559179124	-54.4106876112681	
1026400000	-6.6765607800461	-53.3899168665142	-33.872649492342	76.3339113901111	-33.9207275753541	79.0979915294046	-6.04194641768203	-54.557577119356	
1027200000	-6.68005565719676	-53.4399781155433	-33.8559590044917	67.530819428534	-33.9061584427321	70.1968139113551	-6.04685326003579	-54.6704508776025	
1028000000	-6.68339016982667	-53.4768365475454	-33.8426369809646	58.8405487395548	-33.8940559674464	61.4323638770916	-6.05220583231245	-54.7738672963996	
1028800000	-6.68649759464342	-53.4971580376085	-33.8307002255123	50.3554365658247	-33.8829644990427	52.9189647625262	-6.05848320387683	-54.8909476233543	
1029600000	-6.68944143621938	-53.4968889753128	-33.8223175233854	42.1254740916692	-33.8752210442599	44.6667092668594	-6.0650442655262	-55.0457203536444	
1030400000	-6.69230488531438	-53.4849855335111	-33.8168021214043	34.0887472997354	-33.8702503695131	36.578649084695	-6.07194485382886	-55.2535562390756	
1031200000	-6.69508739490447	-53.4802122285828	-33.8117115670306	26.1927288077942	-33.8702612916521	28.6147511264647	-6.07959837944741	-55.5025883665245	
1032000000	-6.69776876590934	-53.4670818897484	-33.813875409113	18.4053341392668	-33.8747115556422	20.7026673719537	-6.08790551727593	-55.7731807907329	
1032800000	-6.70026266282156	-53.4573942490494	-33.8151186383214	10.7156584367152	-33.8800327736663	12.9156235948832	-6.09610434645491	-56.0309848792534	
1033600000	-6.70276415149871	-53.4478965478205	-33.8199859131659	3.06461737386542	-33.887163599735	5.17863531634714	-6.10394081127173	-56.2635054972954	
1034400000	-6.70509636872754	-53.4254176713207	-33.8259118701236	-4.52109300366209	-33.8968410176402	-2.47365864963928	-6.11185387093505	-56.4377605706633	
1035200000	-6.70732647393501	-53.3966100717417	-33.8376108347266	-11.9631968040998	-33.9084014878347	-9.92960502096258	-6.11939782243701	-56.5587409942853	
1036000000	-6.70954155997823	-53.3648000443704	-33.8507148834377	-19.2284488096598	-33.9222299225442	-17.2797659878592	-6.12635211380405	-56.6733548693735	
1036800000	-6.71156360865352	-53.3457379929925	-33.8644318632828	-26.3689709315323	-33.9401767461767	-24.4646843405646	-6.1325845831016	-56.7847072560341	
1037600000	-6.71349270240862	-53.3303962844906	-33.8825348664532	-33.4691988414119	-33.9608068157594	-31.5878377554631	-6.13781701699309	-56.9046398833275	
1038400000	-6.71522368795212	-53.3182218878401	-33.9071480313199	-40.52500155462	-33.9869516113228	-38.6756275680635	-6.14186200205497	-57.038992711054	
1039200000	-6.71645180743719	-53.3014809721007	-33.9331701172164	-47.5394175395163	-34.0187257956478	-45.7228288807972	-6.14481752947931	-57.1921027131026	
1040000000	-6.71732590468613	-53.2820033081712	-33.9639578673773	-54.4407068288236	-34.0539993750745	-52.6427926569622	-6.14712801968632	-57.364637639943	
1040800000	-6.71766306806366	-53.2640119161781	-34.0002266291982	-61.2313883729161	-34.0946212159786	-59.4530754907652	-6.14897846559179	-57.5312656729274	
1041600000	-6.71761165233386	-53.2586175655686	-34.0432744519364	-67.9294830548104	-34.1398931072671	-66.1785074447079	-6.15066067900651	-57.6645993635705	
1042400000	-6.71729421229201	-53.2702088594631	-34.094267994112	-74.5764022487989	-34.1894065150527	-72.827775046346	-6.15219672422043	-57.7446598223805	
1043200000	-6.71637502268292	-53.2919322278783	-34.1490931034405	-81.2557345620545	-34.2510889712381	-79.5171016015297	-6.15391952587228	-57.783430470733	
1044000000	-6.71511466142467	-53.3191286844539	-34.2182642001239	-87.9762559797065	-34.3229794315942	-86.2458402862357	-6.15595518859791	-57.7782390476528	
1044800000	-6.71348097771862	-53.3525112541422	-34.3018597099762	-94.744544326291	-34.4140057597732	-93.0177494480913	-6.15849009252586	-57.7651984319773	
1045600000	-6.71145575283013	-53.4007874178136	-34.409202843014	-101.504361485955	-34.5192195388702	-99.7767583550209	-6.16153983158815	-57.7744609793054	
1046400000	-6.70983017495818	-53.4553601384543	-34.5411343712233	-108.279910230428	-34.6263622489971	-106.527424932186	-6.16544540221179	-57.8151176013389	
1047200000	-6.70829851143846	-53.5162408942388	-34.6726823285978	-114.998455587502	-34.7513306798355	-113.249979814054	-6.17014120987919	-57.8937585450867	
1048000000	-6.70687512503279	-53.5828552102965	-34.8049819883778	-121.699705037984	-34.8662826870815	-119.958509441613	-6.17509948333248	-58.0058571482052	
1048800000	-6.70596371293237	-53.6512239515469	-34.9380149259804	-128.435317704396	-34.9934441066147	-126.705808398273	-6.18042015989231	-58.1271006295036	
1049600000	-6.70506056074839	-53.720940914777	-35.0556266611794	-135.197969865788	-35.1512700691414	-133.443056625609	-6.18595827748705	-58.2378729578822	
1050400000	-6.70417918089111	-53.7946053774656	-35.1608846935131	-142.016163768051	-35.2592625461627	-140.296942938645	-6.19097313155066	-58.32684484834	
1051200000	-6.70306313141403	-53.8761068376758	-35.2584480982203	-148.94037765462	-35.358362864219	-147.18703729804	-6.19509864223681	-58.3861035437818	
1052000000	-6.70218983255973	-53.9679589943801	-35.3384749288346	-155.996878028049	-35.4341096440618	-154.249722071193	-6.19853997586158	-58.4160606475487	
1052800000	-6.70150427790802	-54.0751791526544	-35.4119829270592	-163.044596912014	-35.5027696767265	-161.536412700135	-6.20112269729521	-58.4326784510453	
1053600000	-6.70102408616279	-54.1960841360506	-35.4686836241585	-170.305739999018	-35.5680018918707	-168.951218775119	-6.20286172465949	-58.450041180033	
1054400000	-6.700593921266	-54.3344084385142	-35.5222305484337	-177.84455929796	-35.6247888713577	-176.642979621887	-6.20372609259103	-58.4852267930549	
1055200000	-6.7006056904074	-54.487602254897	-35.5750639666011	174.474041056448	-35.6785606604911	175.336104999421	-6.20339093629086	-58.5578274741158	
1056000000	-6.70069703739018	-54.6371971551683	-35.6218590903939	166.487339155353	-35.7259141352872	167.268425574251	-6.2021920998152	-58.6682414909366	
1056800000	-6.70089138779926	-54.7898590607528	-35.6685595797933	158.340472317902	-35.7744446032683	159.029548098968	-6.20064883582009	-58.7962447302204	
1057600000	-6.70104837443323	-54.9416410853676	-35.7141630356425	150.03003447325	-35.8244500765546	150.646594488627	-6.19894259152324	-58.9363099423823	
1058400000	-6.70143244023624	-55.0916284500564	-35.7596991071536	141.721027858673	-35.8706896566539	142.288451731972	-6.19739572452172	-59.0639648332293	
1059200000	-6.70216868745412	-55.2394100993588	-35.8053409738297	133.397510097049	-35.9144612923595	133.915663647302	-6.19610231706765	-59.1778517608395	
1060000000	-6.70325653831186	-55.3824048496817	-35.8529359021525	125.148724267511	-35.9558938203731	125.588023307175	-6.19525925245089	-59.2686132088239	
1060800000	-6.70466557834975	-55.5246435317009	-35.8987331809158	117.299838964279	-36.0018881722698	117.695258988129	-6.19506254954955	-59.3416689068031	
1061600000	-6.70637655591564	-55.6624959688286	-35.9418797564035	109.469889605293	-36.0442222309398	109.842890327779	-6.19587502478786	-59.4151052243874	
1062400000	-6.70817618967137	-55.7941850129731	-35.9827125820805	101.69904705202	-36.086384407316	102.038553830408	-6.19778726619372	-59.4917036494454	
1063200000	-6.71030385117638	-55.9223385713937	-36.0120973305922	93.8878893422778	-36.121747057341	94.2160488162497	-6.20008810165058	-59.575155499658	
1064000000	-6.71248446059734	-56.0430903405404	-36.044072601604	86.1094592412705	-36.150691200699	86.4471509286569	-6.20271214154644	-59.6666244643637	
1064800000	-6.71432409838464	-56.1555219570493	-36.0716712301	78.3286766874521	-36.178989661511	78.6520580832009	-6.20451019873459	-59.7661158184365	
1065600000	-6.71560438302152	-56.2597615486089	-36.0948677326937	70.5686845526022	-36.1989200391023	70.872639734324	-6.20573534471452	-59.8772337278811	
1066400000	-6.71670831798381	-56.3607445844462	-36.1149001797813	62.806664795172	-36.2181563823654	63.0923032675182	-6.20566223167879	-59.9969202567227	
1067200000	-6.71723884281751	-56.4586024194752	-36.1298259120646	55.0728766052989	-36.2341837076774	55.3279942919568	-6.20413961392118	-60.1251806823016	
1068000000	-6.71737131289532	-56.5553488432388	-36.1426427997249	47.351787913243	-36.2468922426929	47.5975796678321	-6.20148799170169	-60.2593643792987	
1068800000	-6.71722162272946	-56.6518354683617	-36.150762125789	39.6470463428096	-36.2513875443909	39.9014205148305	-6.1976584247459	-60.3995052073642	
1069600000	-6.71706587397592	-56.7502270132904	-36.1495890273494	31.9574666762452	-36.249562096885	32.2057118536534	-6.1928082381991	-60.5424212753905	
1070400000	-6.71684771412587	-56.851946657437	-36.1399827883876	24.2546560105538	-36.2406400460783	24.5016391256352	-6.1861624584426	-60.6829064312523	
1071200000	-6.71654639643778	-56.9564963920086	-36.1217060182944	16.5394702863796	-36.2278371100627	16.7826090639678	-6.17850603073532	-60.8154536304213	
1072000000	-6.71639326898284	-57.0583946095358	-36.0994988124931	8.78516909144901	-36.2049579128214	9.08463171574169	-6.17034388855427	-60.9414283414742	
1072800000	-6.71675230915846	-57.1582224483031	-36.0742175135138	1.03450467245329	-36.1796629699647	1.33045324579643	-6.16262671093306	-61.0630272209037	
1073600000	-6.71668390044626	-57.2547768378715	-36.0450331181749	-6.73422338082207	-36.1493183024561	-6.4043043741575	-6.1556699550011	-61.181696526369	
1074400000	-6.71688213676321	-57.3501686369627	-36.0086941860258	-14.527854269611	-36.1156424820563	-14.1742715010038	-6.14907543545779	-61.2932715339692	
1075200000	-6.71793756262907	-57.4436528887274	-35.9763193583202	-22.3303159947136	-36.0835897714671	-21.9825360458967	-6.14380183064654	-61.3987043218781	
1076000000	-6.71880787162712	-57.5388902784908	-35.9381496531197	-30.1557038670413	-36.0439227754517	-29.8142113772536	-6.13985488030663	-61.5046554839622	
1076800000	-6.71985216452918	-57.6316267482133	-35.8985427678549	-37.9656259195835	-36.0052887001771	-37.6611287197061	-6.13704008988343	-61.6134458818703	
1077600000	-6.7207739671783	-57.724055413336	-35.8531753775482	-45.8283731707959	-35.958393297378	-45.5232204679593	-6.13565518903828	-61.7237880906066	
1078400000	-6.72203094603525	-57.8170394999665	-35.8103442661654	-53.6998933598231	-35.9119056664533	-53.4371986628615	-6.1360266135424	-61.8393678686442	
1079200000	-6.72361482906101	-57.9100083397714	-35.7660001620387	-61.6165054816377	-35.8663261275017	-61.3597140096384	-6.13794300937166	-61.9614859953067	
1080000000	-6.72550669620804	-58.0029322241675	-35.7214191525517	-69.5195693522711	-35.8224128932479	-69.3056121978622	-6.14162985159363	-62.0905712499826	
1080800000	-6.72796813821055	-58.0971494401298	-35.6802809939384	-77.4402677303119	-35.7781275711762	-77.2469788833033	-6.14642470530607	-62.2307068830251	
1081600000	-6.7314668142908	-58.1901870164186	-35.6384346993876	-85.3594902422575	-35.7337854079809	-85.1848549520257	-6.15231685364712	-62.381171589431	
1082400000	-6.73586041333928	-58.2826917578466	-35.5953744531694	-93.260599151643	-35.6908585604901	-93.1126686487886	-6.15828713788282	-62.5419648899371	
1083200000	-6.74106041207685	-58.3704039853607	-35.5507678932149	-101.143134061731	-35.6499547367096	-101.01646151505	-6.1643402175453	-62.7105947132727	
1084000000	-6.74675297131008	-58.4538240427245	-35.506274530831	-108.997241605075	-35.6060196994663	-108.878635096155	-6.16990261995223	-62.8814349422789	
1084800000	-6.75307428694236	-58.5306653153454	-35.4608992235798	-116.840148655766	-35.5579935297296	-116.721882876114	-6.174792880813	-63.0541133377448	
1085600000	-6.75931584854296	-58.602407876088	-35.4093505794543	-124.628572442487	-35.5099321642971	-124.54052063028	-6.17855134330095	-63.2254283602281	
1086400000	-6.76617748536691	-58.6702796977902	-35.3508244693096	-132.384703102529	-35.4491541646456	-132.329231762069	-6.18113042208346	-63.3944230899171	
1087200000	-6.77284582980319	-58.7348057555381	-35.2799248356968	-140.13220701707	-35.3810413925561	-140.094821212242	-6.1824687108004	-63.5583920198235	
1088000000	-6.77890874197245	-58.7930696411488	-35.206467358936	-147.841026374001	-35.3018882169613	-147.818410640166	-6.18287350012428	-63.7117383111154	
1088800000	-6.78476320468724	-58.8452044379272	-35.1042045842885	-155.531919895504	-35.2212778868538	-155.565501601548	-6.1826679664701	-63.8566377002379	
1089600000	-6.79084304644423	-58.8917615725123	-35.0031070231604	-163.212609100445	-35.1323467122184	-163.264068427954	-6.18191610569223	-63.9922113534701	
1090400000	-6.79657102153107	-58.9357677140339	-34.8899927368281	-170.870056533504	-35.0243676234652	-170.953402854761	-6.1817981295445	-64.1164860240509	
1091200000	-6.80205054064202	-58.9768380168939	-34.7456735122895	-178.471609504794	-34.9012226754649	-178.5257347942	-6.1823680483259	-64.2323160292176	
1092000000	-6.8070159700545	-59.0211809763247	-34.5877223195887	174.16724939171	-34.7549815292718	174.079910193702	-6.18401526927238	-64.3407712461334	
1092800000	-6.81119165812491	-59.0652333646005	-34.4282838895251	167.383038974296	-34.6038206666447	166.786980258889	-6.18640785265226	-64.4468443594197	
1093600000	-6.8147793937983	-59.1092452951074	-34.3034775762238	160.683590029503	-34.4663622533803	159.838247922903	-6.18972799014923	-64.5473890292073	
1094400000	-6.81798967166244	-59.1522884133739	-34.1927094026833	154.103234031404	-34.3581538919063	153.124530398449	-6.19494964793895	-64.6404587797048	
1095200000	-6.82102936203835	-59.1972710507651	-34.1088523392712	147.621929657367	-34.26645127213	146.641722741689	-6.20151344994911	-64.7326540310272	
1096000000	-6.82428654554961	-59.2434174249124	-34.0348982688168	141.176387513911	-34.190454113505	140.201031203521	-6.20892742637487	-64.8377128018519	
1096800000	-6.82758701461851	-59.2891417337745	-33.9731608994934	134.774112927961	-34.1239671439133	133.79842552932	-6.21697633508904	-64.9523346494359	
1097600000	-6.83078817759254	-59.3357696283516	-33.915111278903	128.42244278182	-34.0561897100274	127.415509389669	-6.22556660186173	-65.0720812803893	
1098400000	-6.83376851143474	-59.3831691198948	-33.8572662597872	122.126855346929	-33.993442578293	121.082945911028	-6.23382231795692	-65.1978913866389	
1099200000	-6.83673802705482	-59.4310514093184	-33.803740002313	115.840968338878	-33.9362572782107	114.787754958879	-6.24184727676487	-65.3313412777888	
1100000000	-6.8393560384843	-59.4820119473305	-33.7506604301061	109.559380989951	-33.8822598411139	108.501262460551	-6.2489600191066	-65.4704413789079	
