!Keysight Technologies N9915A: A.10.33
!Date: Tuesday, 12 May 2020 14:25:35
!Timezone: (UTC+08:00) Perth
!Model: N9915A
!Serial: MY53102697
!GPS Latitude: 
!GPS Longitude: 
!GPS TimeStamp: 0001-01-01 00:00:00Z
!GPS Seconds Since Last Read: 0
!CHECKSUM:1904434133
!Correction: S11(ON U)S21(ON U)S12(ON U)S22(ON U)
!S2P File: Measurements:S11,S21,S12,S22:
# Hz S DB R 50
1000000000	-6.62551180267213	-45.6425005123074	-33.7670756937574	-21.1260589990856	-33.9845663310968	-18.4191464511423	-5.82738680716639	-53.1197945996856	
1000800000	-6.62797240252926	-45.5989034972837	-33.7554588243504	-25.3808421098516	-33.9729168851042	-22.4571363442053	-5.83320726434185	-52.6840158849749	
1001600000	-6.63036381201695	-45.7458716969858	-33.7439397155244	-29.4090667396787	-33.961229863621	-26.813413405769	-5.83906356178591	-52.2770508607127	
1002400000	-6.63318367842823	-46.0719825257871	-33.7311312265769	-34.2832874872384	-33.9478241566677	-32.4101909079285	-5.84444867011999	-51.8439798783064	
1003200000	-6.63630524002745	-46.4299554670795	-33.7182975452885	-40.1192565123531	-33.9341168650322	-38.3786241569542	-5.84949030912924	-51.4893395278636	
1004000000	-6.63983793990101	-46.8143958425248	-33.7044617612711	-45.5187179448982	-33.9199781915497	-44.0187749945483	-5.85414150039137	-51.3696954901974	
1004800000	-6.64349996280663	-47.2071891237072	-33.6896566268053	-50.9408721259007	-33.9047325444697	-49.2550246541159	-5.85779509708942	-51.4209141718994	
1005600000	-6.64663296382599	-47.6197771987026	-33.6765013462075	-56.1207594065427	-33.8891438570509	-54.5415148343072	-5.86083064387925	-51.7124205615868	
1006400000	-6.64951235083132	-48.0701147355603	-33.6626464456802	-61.190888903469	-33.8766141231146	-59.8621836063082	-5.86313132076701	-52.115478933614	
1007200000	-6.6524167753574	-48.5662745009455	-33.6494577222556	-66.4018334715502	-33.8630397586487	-65.2685039906187	-5.8650053408558	-52.5236813194099	
1008000000	-6.65504692996476	-49.0583988960336	-33.6402540787469	-71.6732900905428	-33.8516491887818	-70.9515626319467	-5.86689402792389	-52.7977028126907	
1008800000	-6.65786898675097	-49.5172669172874	-33.6328426750824	-77.0508648876584	-33.8426715205381	-76.3764838491961	-5.86931733153159	-52.9210812882029	
1009600000	-6.66082696375343	-49.8998949401383	-33.6251379597473	-81.9932478580375	-33.8352051114901	-81.4274817803551	-5.87209747234801	-52.917834629331	
1010400000	-6.66376371052553	-50.1956344019771	-33.6204025990113	-87.13289570333	-33.8272822579235	-86.2375148201222	-5.87561170733627	-52.7907446567171	
1011200000	-6.6665933507949	-50.4027974507705	-33.6145084597137	-92.5447965920244	-33.819436003675	-91.4568738310988	-5.87982194530873	-52.6102141791458	
1012000000	-6.6688748235683	-50.5813550991609	-33.6095131141459	-98.3113153116752	-33.8113451543541	-97.2018547743915	-5.88491507253317	-52.4578480073398	
1012800000	-6.67107459001878	-50.7663337951865	-33.6052142769096	-104.705298582452	-33.8032457011045	-103.57887062149	-5.89085822432231	-52.3919301679357	
1013600000	-6.67341117386168	-50.9666202617012	-33.5999286466474	-111.488035840592	-33.7958876224422	-110.446046953599	-5.89820741209995	-52.4286251193296	
1014400000	-6.67574972189623	-51.2213999438497	-33.5954396152873	-118.110720461343	-33.7882115110413	-117.621152216457	-5.90697750619965	-52.5498870184686	
1015200000	-6.67834864711052	-51.5061856407822	-33.5915120449034	-124.887778968946	-33.7818287911339	-126.440258312871	-5.91623249364191	-52.7184462432974	
1016000000	-6.68112901014652	-51.7544646928032	-33.5890418940344	-137.850196069264	-33.7770386842884	-138.080768105145	-5.92550788613997	-52.8826720568161	
1016800000	-6.68391611287409	-51.9694465120621	-33.5888346547002	-151.136212341446	-33.7735115148926	-150.734500364643	-5.93488035104301	-53.0392012420737	
1017600000	-6.68658199135039	-52.1656406531969	-33.5929944503276	-164.044709359149	-33.7729327840034	-163.738482665293	-5.9438638648588	-53.1904917036272	
1018400000	-6.68917862870536	-52.3507109223084	-33.597377625653	-176.756833092129	-33.7714974801867	-176.411117242406	-5.95191686980027	-53.2772248126581	
1019200000	-6.6916064828891	-52.5304910320061	-33.6018479616376	171.032579084794	-33.7704056483599	171.157656704736	-5.9592097904926	-53.3446801587162	
1020000000	-6.69384724264914	-52.6896050328254	-33.6048194597091	159.229693768683	-33.7689408909025	159.127088982357	-5.96553663439437	-53.4253197550782	
1020800000	-6.6960444015904	-52.8194073377606	-33.6051941682878	148.0159842011	-33.7677912778871	147.733253416879	-5.97136934056608	-53.5343326820459	
1021600000	-6.69810269196225	-52.8970021484926	-33.603733772567	137.275337002506	-33.7641216525053	137.024473806302	-5.97645729450131	-53.6964742729195	
1022400000	-6.70017952467368	-52.9501445338684	-33.6022230730172	127.030166049367	-33.7577822121954	126.781892826828	-5.98108579250067	-53.8961905767164	
1023200000	-6.70243133804577	-52.9915853441048	-33.5964303390378	117.184305542692	-33.7508436305781	116.920728402119	-5.98548759160776	-54.1351771277664	
1024000000	-6.70458050204581	-53.0476321893648	-33.5884704131542	107.639810316396	-33.7403214146892	107.449127158092	-5.98966585884877	-54.366793024367	
1024800000	-6.70689893364245	-53.1122936939491	-33.5805009861476	98.4267283118538	-33.7295099065981	98.2982267730432	-5.99376905096043	-54.5691317244817	
1025600000	-6.7093953736594	-53.1512770613137	-33.5741502801563	89.5423591244967	-33.7184439569425	89.371577955447	-5.99710124582788	-54.7564645431555	
1026400000	-6.71188447885157	-53.1869401001911	-33.5661257601788	80.8489976563355	-33.7071633848198	80.6259992187854	-6.00038399910257	-54.8965335366591	
1027200000	-6.71458493763589	-53.2162516832542	-33.558785381141	72.2585577210844	-33.6973994929026	72.0464946552067	-6.00425108003482	-55.0060946562005	
1028000000	-6.71722459560093	-53.2318481625264	-33.5545146042736	63.779719182713	-33.6946597675938	63.5020107608473	-6.00860429634577	-55.0980591201839	
1028800000	-6.71989468601085	-53.238730104248	-33.5554757023898	55.4206339317333	-33.6947414103107	55.1532714291908	-6.01353933445773	-55.1917108493929	
1029600000	-6.72257032677325	-53.2297802302282	-33.560932632371	47.247992733699	-33.6988503271699	46.9956034123488	-6.01864758441275	-55.3191153750371	
1030400000	-6.72544283558609	-53.2138166118817	-33.5705006074827	39.2363596944134	-33.7114022390387	38.990187431701	-6.02404526507961	-55.4892985654817	
1031200000	-6.72828849233659	-53.2029636382635	-33.5832845819986	31.344238095062	-33.7262707241328	31.1279755891958	-6.03014066422337	-55.6930759738337	
1032000000	-6.73128974596658	-53.1861064718345	-33.601024473561	23.5715059229337	-33.7454211949892	23.3827786454673	-6.03672492825871	-55.9159333697935	
1032800000	-6.73412938703783	-53.175414765566	-33.6201092400657	15.8712787292289	-33.7601664395004	15.7367775037914	-6.0434799779863	-56.1256348269228	
1033600000	-6.73700268692524	-53.1624199343288	-33.6394851883109	8.19481812890575	-33.7817787003064	8.12520739050996	-6.05003211690137	-56.3102419673847	
1034400000	-6.7397043250709	-53.1361787019185	-33.6600916579271	0.600418807490883	-33.803611060267	0.612973477939533	-6.05660617636163	-56.4413641420447	
1035200000	-6.74211228655798	-53.1073029101792	-33.6826184687635	-6.80368284604094	-33.8258964609385	-6.73033818617807	-6.06311101241417	-56.541668473287	
1036000000	-6.744139564306	-53.0832332345552	-33.7030175783943	-14.0820080459492	-33.8502949507582	-13.9781736734017	-6.06936181441482	-56.6262664006024	
1036800000	-6.74577498605595	-53.0738931426178	-33.7337048488605	-21.258529466192	-33.8774950955368	-21.0977488217085	-6.07489099846536	-56.7068593437579	
1037600000	-6.74724894966556	-53.0752889715778	-33.7661214140869	-28.3208316657218	-33.9053779665394	-28.1432741060773	-6.079922005073	-56.7917873621761	
1038400000	-6.74828913964584	-53.0798550548838	-33.7994372388403	-35.3100974948036	-33.9341290653297	-35.103867521307	-6.08400994508866	-56.8876466625709	
1039200000	-6.74880190038766	-53.0853510136296	-33.8425973531154	-42.1805492826042	-33.9692408296294	-41.9448635117566	-6.08715479715974	-57.0108646826314	
1040000000	-6.74873469823964	-53.0965963966002	-33.8911716206635	-48.8257890786592	-34.008051739786	-48.6337025433907	-6.08974329510867	-57.164657329333	
1040800000	-6.74807345688598	-53.1171348450641	-33.9442353530312	-55.3778776119336	-34.0550655516073	-55.1562916815338	-6.09189136812995	-57.3238916594446	
1041600000	-6.74703160870065	-53.1527175726684	-34.0029323266141	-61.8500758820088	-34.1062579668099	-61.5891480654736	-6.09374178265805	-57.4643558593794	
1042400000	-6.74550049743173	-53.2019556054725	-34.0733530892902	-68.3458954310034	-34.1605661796083	-68.072132774371	-6.09544297622824	-57.5655601191308	
1043200000	-6.74368208000644	-53.2596046978975	-34.1494709861716	-74.9168917985253	-34.2318008091375	-74.6394640556845	-6.09733353272835	-57.6292943750283	
1044000000	-6.74149644072301	-53.3204359922609	-34.2523776466028	-81.5320559667579	-34.3178423874053	-81.2752262435023	-6.09969289057153	-57.6472892382028	
1044800000	-6.73907859955137	-53.3854002209223	-34.367989995162	-88.1859276514394	-34.4153153701781	-87.8994897536851	-6.10253940665024	-57.662555748279	
1045600000	-6.7362038123018	-53.4600072633118	-34.4932762697325	-94.754483027381	-34.5405990460633	-94.4743888324034	-6.10622720044408	-57.6951134957247	
1046400000	-6.73390434552048	-53.5329904217282	-34.6822430593626	-101.223960773848	-34.6761387355091	-100.870949405146	-6.1107847505848	-57.7616922742066	
1047200000	-6.73182375189124	-53.5997447324996	-34.9010613547618	-107.608125163707	-34.8207414538112	-107.254847361715	-6.11595819373797	-57.8582483217441	
1048000000	-6.72988874019481	-53.6655814873498	-35.1398985885437	-113.987664198153	-35.0295128210738	-113.604901666893	-6.12148127360589	-57.9835058245979	
1048800000	-6.72844323384825	-53.7325633198487	-35.2777881402775	-120.38954253918	-35.2244900095809	-119.923445500238	-6.12715180754152	-58.1217727434441	
1049600000	-6.72724800318819	-53.8008383907025	-35.4151845885295	-126.790142291492	-35.3688185142997	-126.255788947339	-6.13302610266259	-58.2476895431476	
1050400000	-6.72619407941315	-53.8767798655984	-35.5406399315635	-133.110452965999	-35.4761373753867	-132.554224367454	-6.13851842637171	-58.3522075551636	
1051200000	-6.7251492554622	-53.965670625268	-35.6296013420742	-139.46901258612	-35.5787892130472	-138.90632059555	-6.14331115021206	-58.4324755783855	
1052000000	-6.72437437996155	-54.0670666404424	-35.7136418465029	-145.973967424648	-35.6517773145325	-145.348744623255	-6.14748167913648	-58.4888160626979	
1052800000	-6.72380473511605	-54.1855055181926	-35.7857916576014	-152.432553269026	-35.7202566499705	-151.691866299193	-6.15106069135166	-58.5300235908287	
1053600000	-6.72337394725035	-54.3170813668327	-35.8464569545292	-159.253613527602	-35.7760844679833	-158.317610817142	-6.15405117222922	-58.5710467460429	
1054400000	-6.72282000814033	-54.4664248246095	-35.8963936543447	-168.624784614147	-35.8251640725433	-165.46983978914	-6.15637085448708	-58.6242906645966	
1055200000	-6.72280995255485	-54.6294225324992	-35.9403801050349	-176.914684734809	-35.8727094526671	-174.08388576739	-6.15751721560756	-58.7105185497913	
1056000000	-6.72264145697006	-54.7872521290011	-35.9851168489074	174.597415902054	-35.9111706766946	177.364211985059	-6.1576792206798	-58.8257569167527	
1056800000	-6.72249226110629	-54.9437697985495	-36.0346345091946	166.078763911329	-35.9497538026659	168.889307874774	-6.15778506637846	-58.960832792417	
1057600000	-6.72251707408905	-55.0971217327061	-36.0795602275136	157.480671704498	-35.9873914703781	160.284923444441	-6.15762671784858	-59.1082726922302	
1058400000	-6.72285779983798	-55.2509016181276	-36.1267655847927	148.884634265213	-36.0255381174032	151.648969138324	-6.15757670792809	-59.2416013200345	
1059200000	-6.72375336038075	-55.4042614617263	-36.1668582130563	140.347493885404	-36.0627394874762	143.079997077242	-6.15772530183825	-59.3579672262952	
1060000000	-6.7250383811158	-55.550922006217	-36.2085796061672	131.917343017598	-36.1016470765715	134.604997701099	-6.15831626827881	-59.4559805615797	
1060800000	-6.72667615963302	-55.6858066508968	-36.2485137978552	123.952237245617	-36.1396187160066	126.610776558538	-6.1593883871741	-59.5422707046602	
1061600000	-6.72864885470198	-55.8177837651574	-36.287078243435	116.01257061939	-36.1723576938726	118.650015454864	-6.16171895406629	-59.6285887773976	
1062400000	-6.73074106312818	-55.9453018596765	-36.3225610405965	108.051124468932	-36.2042420856574	110.662502500076	-6.16514475032797	-59.7169008817185	
1063200000	-6.73308101419252	-56.0697836382688	-36.3570773432245	100.075025830206	-36.2371948846137	102.687774932285	-6.16900552827591	-59.8102565222734	
1064000000	-6.73570121651227	-56.1871379709719	-36.3936493455828	92.1071065471457	-36.2701774100926	94.7098802102458	-6.17314046697117	-59.9100897674204	
1064800000	-6.73812478812093	-56.2963090644824	-36.4311732341821	84.1886686906051	-36.3008963388768	86.7840456987551	-6.17701482271949	-60.0168191106977	
1065600000	-6.73990704777689	-56.3978633821903	-36.4675259506432	76.2610472394791	-36.331000308021	78.876124802229	-6.18059734375546	-60.132639903211	
1066400000	-6.74164794374125	-56.4954932439753	-36.5001127123932	68.3713610751527	-36.3644694280409	70.9991294649458	-6.18333565864242	-60.2556419021869	
1067200000	-6.7428935001289	-56.5901275783935	-36.5297796529525	60.5151282471928	-36.3923812211219	63.1553058654016	-6.1853054985665	-60.3851416578708	
1068000000	-6.74382102377454	-56.6838981154107	-36.5615838589238	52.6990032489275	-36.4171836093542	55.3120538388358	-6.18649500221303	-60.5179792397184	
1068800000	-6.74449555359766	-56.7766704095032	-36.5825061371482	44.8950552228221	-36.4371659170201	47.5047934868512	-6.18752924155421	-60.6566212164037	
1069600000	-6.74528196760608	-56.8707083158566	-36.5992441738208	37.1206054809569	-36.451427174365	39.7005038213258	-6.18745146491385	-60.798359764305	
1070400000	-6.74615011343642	-56.9672615245024	-36.6119875959724	29.3282191984152	-36.4584348456958	31.8904189526635	-6.18567289866876	-60.9359587389885	
1071200000	-6.74715319843926	-57.0666171927929	-36.6176164685071	21.5377944501982	-36.4616153964756	24.0760652509684	-6.18328879886705	-61.0640374703138	
1072000000	-6.74826181609111	-57.1611959618289	-36.6155582450111	13.7583247842001	-36.460414887804	16.2672544775917	-6.18033300404132	-61.183469106606	
1072800000	-6.74986016743056	-57.2525003996501	-36.612719901916	5.98030275187466	-36.4601990583774	8.44580631859776	-6.17796316796891	-61.2981472642174	
1073600000	-6.7512891369256	-57.3385550666714	-36.6031659005568	-1.79602186780062	-36.4513764800005	0.648185516041622	-6.17564541728525	-61.4063215675823	
1074400000	-6.75277124662176	-57.4224310537536	-36.5917347474861	-9.58140249240603	-36.4439031679751	-7.15476581890789	-6.1735049029577	-61.5045613042204	
1075200000	-6.75484783273044	-57.5030804612134	-36.5790610595839	-17.3653974897336	-36.4282753126487	-14.9643016327125	-6.17225674113936	-61.5929038291602	
1076000000	-6.75651896267228	-57.5841630047491	-36.5597568767985	-25.1652531284225	-36.4137877590332	-22.7667797647117	-6.1720322466738	-61.6782095937259	
1076800000	-6.7582435967266	-57.6629182044167	-36.5398692331512	-32.9561776838469	-36.392835545532	-30.5450913372755	-6.17235511605532	-61.7625777971786	
1077600000	-6.7597699118088	-57.7397154446044	-36.5144250443509	-40.7530784498545	-36.3637265398377	-38.33537520126	-6.17350997613233	-61.8461580066638	
1078400000	-6.76143779208268	-57.8152829664883	-36.4849594936133	-48.5471040465724	-36.3280421425291	-46.1579687298364	-6.1752987359307	-61.9305153761591	
1079200000	-6.76338233019912	-57.8906551765098	-36.449396641893	-56.3881982056968	-36.2914640043632	-53.9976327410832	-6.17795559590924	-62.0188009716016	
1080000000	-6.76513044459516	-57.9656946356633	-36.4162716752598	-64.2450938811327	-36.2507082446456	-61.8667071804138	-6.18136395590607	-62.1141347240414	
1080800000	-6.7673252204632	-58.0394969206827	-36.3791775296184	-72.0928972702362	-36.2145702412141	-69.7423232227311	-6.18530801705059	-62.2181060727372	
1081600000	-6.76990072815843	-58.1124080497642	-36.3395959694802	-79.9568092477692	-36.1766756048978	-77.6528129119738	-6.18940072869849	-62.3323455603116	
1082400000	-6.77310264588866	-58.184470851881	-36.3020536918252	-87.8064342872638	-36.1348863633777	-85.5409901537364	-6.19326566877138	-62.4556715583042	
1083200000	-6.77703221487059	-58.2532455217226	-36.260463421294	-95.6387806129165	-36.0952266717496	-93.4183280785496	-6.19689262958832	-62.5858623744882	
1084000000	-6.78113796603382	-58.3181895553865	-36.2171136110732	-103.458382210454	-36.0560907561667	-101.243817313803	-6.19979582645339	-62.7230873408907	
1084800000	-6.78531315488234	-58.3775410990659	-36.171732562156	-111.21416527439	-36.010734143386	-109.028278822674	-6.20205539148846	-62.8618947050105	
1085600000	-6.7893437353523	-58.4331791766389	-36.1206729941835	-118.955540429028	-35.9550108237782	-116.776218521256	-6.2029413205532	-63.0057340740912	
1086400000	-6.79367034722622	-58.4872146228291	-36.0570603831916	-126.610870297983	-35.8875151347515	-124.465611649864	-6.20293315119144	-63.1496574024951	
1087200000	-6.79767002620394	-58.5400949381261	-35.9814876359984	-134.248092543985	-35.8170043895787	-132.130573738224	-6.20160461142296	-63.2930112581328	
1088000000	-6.80091437968681	-58.5881828762856	-35.8931892965802	-141.836588316926	-35.7302400738829	-139.709679646284	-6.19933841533547	-63.4313584335343	
1088800000	-6.80385033635105	-58.6314456600443	-35.7801724306309	-149.487986165061	-35.5951594927396	-147.373372465027	-6.19645750030175	-63.5648071026865	
1089600000	-6.80669454890195	-58.6722864379594	-35.6500597464226	-157.01799040718	-35.4291639301357	-154.799740963689	-6.19316642102571	-63.69230591865	
1090400000	-6.80930048750748	-58.712410440082	-35.4439352057594	-164.710380961912	-35.2610903748857	-162.313213329631	-6.19090869397319	-63.8096607099915	
1091200000	-6.81164803716273	-58.7516290777217	-35.2598204591126	-172.093711348536	-35.0192853478346	-169.384632087886	-6.18889288268756	-63.9228164667044	
1092000000	-6.81348190223907	-58.7952009592969	-35.1273072988955	-178.81693473216	-34.8623591593121	-176.427813294648	-6.18775517900569	-64.029228410936	
1092800000	-6.8147689006226	-58.8411185212635	-35.0090375637915	174.557413891745	-34.7300808737304	176.900760577202	-6.1871855175051	-64.1316023930472	
1093600000	-6.81538243017526	-58.8901650346676	-34.9069215597741	168.05092705536	-34.6226461939255	170.245536450594	-6.18798968999206	-64.2264104603789	
1094400000	-6.81614499141276	-58.9403690737513	-34.8288891772238	161.501729588654	-34.5422657281882	163.650577552399	-6.19008605131154	-64.3226498650781	
1095200000	-6.81698638993174	-58.9944093139331	-34.7597373982452	155.003220084079	-34.4721923505557	157.173364088831	-6.19343381436542	-64.4155282306391	
1096000000	-6.81827326734891	-59.0482219650594	-34.700999086904	148.571471128963	-34.4101154611049	150.736952800522	-6.19747124637095	-64.5206962549528	
1096800000	-6.81998234303936	-59.1023043317973	-34.6494221277448	142.162743756	-34.3592112638519	144.329892728392	-6.20222984691249	-64.6337748015733	
1097600000	-6.82175927680889	-59.155575721913	-34.59810119412	135.808931502234	-34.3073471552321	137.948159494586	-6.20724237648993	-64.7533581643904	
1098400000	-6.82353674481674	-59.208374897656	-34.5521133909058	129.44020274745	-34.2643279263397	131.595623323541	-6.21201827364642	-64.8756319594749	
1099200000	-6.82537165930342	-59.2612929898261	-34.511365658094	123.067865613147	-34.2209116918013	125.26754609644	-6.21719359906645	-65.0045215155778	
1100000000	-6.8270819823863	-59.3152799541842	-34.4680808995776	116.725428407965	-34.1781233929647	118.944756971317	-6.22127044038325	-65.1413488181488	
