!Keysight Technologies N9915A: A.10.33
!Date: Tuesday, 12 May 2020 14:01:56
!Timezone: (UTC+08:00) Perth
!Model: N9915A
!Serial: MY53102697
!GPS Latitude: 
!GPS Longitude: 
!GPS TimeStamp: 0001-01-01 00:00:00Z
!GPS Seconds Since Last Read: 0
!CHECKSUM:1499652712
!Correction: S11(ON U)S21(ON U)S12(ON U)S22(ON U)
!S2P File: Measurements:S11,S21,S12,S22:
# Hz S DB R 50
1000000000	-6.79430351056362	-49.0811824262107	-31.9309285297435	51.5073074052501	-31.8089952688065	51.4818033917086	-5.73400134631843	-52.4574709036363	
1000800000	-6.79253411676007	-48.9638531577134	-31.9135274030578	47.9020489047128	-31.7980952022453	47.2273294769591	-5.7435806914517	-51.9881134308008	
1001600000	-6.79097551216417	-48.8077169178232	-31.8971317729947	44.5118919809034	-31.7863617436001	42.741417709252	-5.75315736034836	-51.3058049413256	
1002400000	-6.78977502994084	-48.7263419167682	-31.8853619710822	41.0145569118987	-31.7791838392235	39.1794151926832	-5.76194490913985	-50.6823229050706	
1003200000	-6.7894564508408	-48.624476522517	-31.8747340987511	38.1597643220717	-31.7740107721709	36.0004265136212	-5.76999668515678	-50.1974900544163	
1004000000	-6.78973900484396	-48.5945282552016	-31.8661531969343	34.6651848463418	-31.7698123936713	32.294628499239	-5.77728318608405	-50.1025121320757	
1004800000	-6.79072053499053	-48.6492928810817	-31.8586428104302	30.3684299222052	-31.7653702460323	28.0192239573755	-5.78337410581831	-50.3405177490822	
1005600000	-6.79157137507541	-48.7940785772702	-31.8502228916538	25.6604409376588	-31.7610373029654	23.4816698613056	-5.78868022469543	-50.8699334824045	
1006400000	-6.79223048659823	-49.025039504862	-31.8415887312067	21.1661634165211	-31.7551926570795	19.154149231207	-5.79300516406692	-51.5521525628806	
1007200000	-6.79310023186971	-49.3091471953153	-31.8324365651619	16.865523808675	-31.7498179018955	15.1719310534782	-5.79657631477899	-52.174246047972	
1008000000	-6.79383952051698	-49.6209132708599	-31.8263648619645	13.2741333285673	-31.7454693066737	11.6535157442335	-5.79981117068095	-52.6426621305092	
1008800000	-6.7949045169369	-49.926790122946	-31.8170272897208	10.7928334501644	-31.7414050273326	8.86517085498458	-5.80324674328513	-52.8991533935313	
1009600000	-6.79615832762886	-50.1939712953889	-31.8109905281331	8.74605556450811	-31.7394349046442	6.71063213256049	-5.80742667986971	-52.9726790792886	
1010400000	-6.7973786746654	-50.3793780989695	-31.8095458440704	7.02810823905522	-31.7376904425012	4.81201045247835	-5.81273926814454	-52.9075414925062	
1011200000	-6.79796028906879	-50.491666148409	-31.8084405547856	5.53449743790451	-31.7381022796587	3.23532009712995	-5.81908785563603	-52.8049056625886	
1012000000	-6.79783485712538	-50.5641225455206	-31.8089174754565	3.92537917360717	-31.7415227398187	1.89245660659303	-5.82657116585453	-52.7400746055728	
1012800000	-6.79754410941573	-50.6161733856311	-31.8136871473014	2.49383480945746	-31.7476263394624	0.612021709363975	-5.83500157670228	-52.793897023402	
1013600000	-6.79710217434111	-50.6349821300137	-31.8173070576612	0.687310443830488	-31.7565746162972	-0.976563034019117	-5.84470048163733	-52.9545226777727	
1014400000	-6.79654296600456	-50.6885054647258	-31.8266653881981	-1.50894193575798	-31.7722861020074	-3.01178416601084	-5.85567803028194	-53.2077519507836	
1015200000	-6.79617762496333	-50.7787127901355	-31.8405279948043	-3.90050203174128	-31.7880231872307	-5.28549727275421	-5.86652890051639	-53.4970053516592	
1016000000	-6.79582259487116	-50.8465400525549	-31.8520473987417	-6.44937243815795	-31.8028419912873	-7.72043223900664	-5.87736454591019	-53.7156565229134	
1016800000	-6.79555703562526	-50.9033509305841	-31.8644882227786	-9.09551094873077	-31.8138967086229	-10.3398264575507	-5.88799222125747	-53.8676821889943	
1017600000	-6.79533939995624	-50.9741565946186	-31.8738091119305	-12.016155802883	-31.8225542290351	-13.1855896577994	-5.89771380383243	-53.9525621262092	
1018400000	-6.79542776726705	-51.0704233880581	-31.8774169935932	-15.09136252629	-31.8295904376667	-16.1460768425181	-5.90657618571774	-53.9536933705546	
1019200000	-6.79583218639631	-51.1913354059602	-31.8739974480461	-18.3001705258	-31.8310155620247	-19.2566655309634	-5.91463879587439	-53.9411336297363	
1020000000	-6.79633491126909	-51.322172139669	-31.8688864482118	-21.605293716195	-31.8302119940323	-22.452959017743	-5.92146709373163	-53.953401999334	
1020800000	-6.79718138467162	-51.4366104339281	-31.8636783260801	-24.9546338706122	-31.8273019642939	-25.7165634161796	-5.92734751452382	-54.0228312238272	
1021600000	-6.79799955321112	-51.5057012325857	-31.8543606626967	-28.3504486704494	-31.8189735553149	-29.100846201439	-5.93205464914208	-54.1726096779969	
1022400000	-6.79933065587609	-51.5455542909321	-31.8443631375363	-31.7663505919764	-31.8091619432885	-32.4507626375929	-5.93577578129703	-54.392359452031	
1023200000	-6.80085990382963	-51.5813452222562	-31.8304722646641	-35.1786733173999	-31.7984884551573	-35.9408396770783	-5.93884624156788	-54.6700497984861	
1024000000	-6.80244891136534	-51.6417080136433	-31.8196378824213	-38.5567601811169	-31.7893708977917	-39.3934236510963	-5.94154771863924	-54.9439084935979	
1024800000	-6.80422790998933	-51.724706524765	-31.8109899165365	-41.9869550878053	-31.7843950683596	-42.893758412524	-5.94455653112425	-55.1735765564426	
1025600000	-6.80638631456217	-51.7996634662121	-31.8077399832302	-45.4850781599624	-31.7827712990613	-46.4794823651472	-5.94708550579425	-55.3565698943668	
1026400000	-6.80864353608057	-51.8881949066489	-31.8080499649293	-49.0841205312494	-31.7858288795984	-50.151290686145	-5.94995745207877	-55.4770811042735	
1027200000	-6.81097788122765	-51.9862351992442	-31.813400221149	-52.8520679128143	-31.7927923345999	-53.9248592811306	-5.95366012184319	-55.5426263502051	
1028000000	-6.81334726671731	-52.0779206889669	-31.8229446071532	-56.7364506549447	-31.8060308132933	-57.8288293743992	-5.95876567837774	-55.5718371757039	
1028800000	-6.81567896255816	-52.1633677770737	-31.8393152097273	-60.6945501296807	-31.8231280813735	-61.8086269956514	-5.96513291040132	-55.6128433654189	
1029600000	-6.81808090266144	-52.2376911467655	-31.8548150495816	-64.6972293002751	-31.8382694629973	-65.7981216747333	-5.97196309976671	-55.7073178750655	
1030400000	-6.82058072020225	-52.3065375243348	-31.8726981201359	-68.7488924642669	-31.8583862567179	-69.8458743468139	-5.97955052715164	-55.8627454269963	
1031200000	-6.82329896672997	-52.3882554230521	-31.8877449903234	-72.817237678701	-31.8754024646977	-73.9193146549455	-5.98800611259498	-56.0558706862767	
1032000000	-6.826047851518	-52.4639483885414	-31.8976296008215	-76.8679460903434	-31.8861271769836	-77.9336055071197	-5.99702307863723	-56.2559012555182	
1032800000	-6.82885303686794	-52.5373750578211	-31.9058151877336	-80.8258810879413	-31.9017615745823	-81.8536273228358	-6.00609730407435	-56.4366430565744	
1033600000	-6.83175341482931	-52.6027888450705	-31.9132749190387	-84.7864690896581	-31.9145721449733	-85.7763653267963	-6.01518130748014	-56.5855567548927	
1034400000	-6.8344850299141	-52.6425160913543	-31.9192715240901	-88.7457277774943	-31.9246232581792	-89.7046292118602	-6.02379457408242	-56.6873744382707	
1035200000	-6.83711947517634	-52.6609677222812	-31.9281389628492	-92.7883018975877	-31.9317517655655	-93.6874381268497	-6.0316933244568	-56.7133622476632	
1036000000	-6.83953494080111	-52.6750475375872	-31.935297851047	-96.8072661190981	-31.9410039841274	-97.6709399665121	-6.03853703885238	-56.726425135247	
1036800000	-6.84175191771792	-52.7044504718491	-31.9406595451101	-100.814411599994	-31.9478530910443	-101.590748072234	-6.044267414208	-56.7388300222312	
1037600000	-6.84389475476433	-52.7467490574642	-31.9433623183351	-104.695455431288	-31.9519374372364	-105.39831491395	-6.04880829596415	-56.7763901939291	
1038400000	-6.84559674467508	-52.803640159823	-31.9439995774454	-108.333981272578	-31.952042025499	-109.005806886098	-6.05209905199674	-56.8500162379948	
1039200000	-6.84672887944665	-52.8736429779449	-31.9441254296444	-111.813394746716	-31.9516226387225	-112.435634122783	-6.0546429557838	-56.9680552209684	
1040000000	-6.84730679635338	-52.9526404213015	-31.9414958738881	-115.290526976632	-31.951730099309	-115.877032501714	-6.05677182510446	-57.1228063541988	
1040800000	-6.84728792461137	-53.0351527143225	-31.9376411546478	-118.837959365672	-31.9535401252615	-119.398377525446	-6.05857736911788	-57.2763879209386	
1041600000	-6.84673006249444	-53.1219789500961	-31.9328906337277	-122.507956366297	-31.9502854438911	-123.042187463664	-6.06060789339757	-57.4090036184127	
1042400000	-6.84554421065106	-53.2139732076683	-31.9292072753098	-126.315353797187	-31.9500815734887	-126.832285010641	-6.0627557612952	-57.5000131884842	
1043200000	-6.84372800047439	-53.3041576699452	-31.9232973511846	-130.212441797674	-31.9449176296428	-130.699908839982	-6.06553713701251	-57.5589858587965	
1044000000	-6.84149508247642	-53.3909913636609	-31.9147446569046	-134.122359766816	-31.9372020540648	-134.549287878973	-6.06907358115753	-57.5819278577177	
1044800000	-6.83858534370737	-53.4762790888304	-31.9062189180836	-137.831764549776	-31.9269455657405	-138.262854297441	-6.0736733084616	-57.6024238005938	
1045600000	-6.83513773524795	-53.569694265867	-31.8957831736737	-141.377589423291	-31.9169301855934	-141.800023331366	-6.07907719390848	-57.6469571270546	
1046400000	-6.83180117721777	-53.6591424950013	-31.8839291006736	-144.789971771524	-31.9043401911908	-145.198203740226	-6.08541691372276	-57.7225095211903	
1047200000	-6.82885664262731	-53.7403637242253	-31.8692677627296	-148.180473132086	-31.889967264755	-148.610574740885	-6.09287350253013	-57.8320123727975	
1048000000	-6.82614109812328	-53.8153033931013	-31.8541513337488	-151.574383022853	-31.8746347085394	-151.998094086486	-6.10096894434437	-57.9708104961933	
1048800000	-6.82409970945289	-53.8825597095821	-31.8381140194853	-154.91888303604	-31.8601862792631	-155.338620022694	-6.10962021410846	-58.1233671569876	
1049600000	-6.82227697445075	-53.9427629156787	-31.8195009507566	-158.265278884555	-31.8433761784823	-158.677356156617	-6.11884836067035	-58.2708215427202	
1050400000	-6.82033687177067	-54.0021009216991	-31.800725235337	-161.616533235045	-31.8264174002734	-162.036662049348	-6.12800711176542	-58.395704198449	
1051200000	-6.81839294316128	-54.0657702709002	-31.7811138167059	-164.959312719964	-31.8084920157446	-165.34782145442	-6.13633169620484	-58.4918414854316	
1052000000	-6.81655993215003	-54.138865468241	-31.7600915132563	-168.302771061533	-31.78784673328	-168.632148787198	-6.14369937613244	-58.559971339583	
1052800000	-6.81475117253112	-54.2290387547478	-31.7387521916785	-171.663001054178	-31.7678610343021	-171.980589065595	-6.15081101120431	-58.6133369975296	
1053600000	-6.81307359055409	-54.3349510826573	-31.7149732703213	-175.033110791508	-31.7464177128564	-175.340448003619	-6.15682302137714	-58.6737457008783	
1054400000	-6.81149520865714	-54.4607827657688	-31.6906903280474	-178.438095739445	-31.7240686473041	-178.740383038918	-6.16234544951267	-58.7544814674777	
1055200000	-6.81020048737202	-54.599332994978	-31.6660414564153	178.142549753746	-31.6998476437444	177.836845912277	-6.1666886751049	-58.8759830819165	
1056000000	-6.8088205528999	-54.7302004002168	-31.6405885298334	174.689795974818	-31.6767049897351	174.3945474229	-6.17039577155425	-59.0382792241739	
1056800000	-6.80738037472452	-54.862329540223	-31.6161512394985	171.212128028594	-31.6539820482117	170.898571204529	-6.17386243910292	-59.2086601328321	
1057600000	-6.80596913901952	-54.991119374912	-31.5928616874077	167.691858396578	-31.6325151514493	167.36862831968	-6.1771950400218	-59.3717120002573	
1058400000	-6.80476150077234	-55.1173796162618	-31.5718497358595	164.125351574607	-31.6135790152857	163.790770122805	-6.18054503079483	-59.5025317468878	
1059200000	-6.80405846906889	-55.2440822728439	-31.5515109956496	160.487259818242	-31.5959843504047	160.158967440247	-6.18385552081958	-59.602255039275	
1060000000	-6.80370444136828	-55.3646582545318	-31.5358032264762	156.828221051063	-31.5805298137923	156.496360093536	-6.1877812398128	-59.6721870563249	
1060800000	-6.80367643796371	-55.461053333482	-31.5197551000157	153.312131062679	-31.5680399923589	152.965710271586	-6.19236431586758	-59.745066859474	
1061600000	-6.80324452120149	-55.5526990195906	-31.5033995210919	149.811687795677	-31.5541633251477	149.439715081886	-6.1978392015417	-59.8157789911559	
1062400000	-6.8022662643446	-55.6425019282257	-31.4864448062258	146.313824390128	-31.5412169924787	145.954415663964	-6.20403816082102	-59.8922443619321	
1063200000	-6.80133066972739	-55.7323854475956	-31.4700777150914	142.831045269617	-31.5284892410976	142.485928070923	-6.21036503529555	-59.9756395294207	
1064000000	-6.80004398003425	-55.8188169216676	-31.452525789196	139.358767416374	-31.5132154984905	139.038148699143	-6.21700403421026	-60.0686384215634	
1064800000	-6.79818343425168	-55.9020988216187	-31.4347564970281	135.900175595582	-31.4985268538503	135.588642617703	-6.22289094376749	-60.1708443071451	
1065600000	-6.79563797243277	-55.9819429359672	-31.412488360748	132.430620514925	-31.4800385992676	132.147571552612	-6.22805499408574	-60.2861904876114	
1066400000	-6.7927253748031	-56.0623389386214	-31.3919084218887	128.952056928853	-31.4615647388171	128.690340651102	-6.23227643301814	-60.4133708321451	
1067200000	-6.78964645593149	-56.1416333477452	-31.3716782254093	125.485857497579	-31.4443088643469	125.256728515607	-6.23493906493889	-60.5508896407302	
1068000000	-6.78638212732973	-56.2209464560825	-31.3510973716418	122.026804472287	-31.4234475009186	121.843800420733	-6.23636688414323	-60.6904698106287	
1068800000	-6.78311281421799	-56.3004819185006	-31.3313319854371	118.59572225596	-31.398776409167	118.415702118954	-6.236884855539	-60.8343952046111	
1069600000	-6.77973343333041	-56.3827115893466	-31.3096054384647	115.193462294295	-31.3750955792237	115.013117634124	-6.23621514049425	-60.9760352625307	
1070400000	-6.77645952359633	-56.4691626052205	-31.2823381544539	111.78838923719	-31.3475365704058	111.638275044735	-6.23383387788508	-61.1090104921991	
1071200000	-6.77309329429279	-56.5599830129935	-31.2512530458644	108.39977427912	-31.3135943131677	108.27126570631	-6.23061657347357	-61.2324812322011	
1072000000	-6.76982787846668	-56.6499171638945	-31.2152210356225	105.047177151501	-31.2726929641397	104.903619955349	-6.22719563146981	-61.3438406401968	
1072800000	-6.76682212791141	-56.7373834410845	-31.1751327380543	101.686304725289	-31.2271718550741	101.526780621028	-6.22414980399873	-61.4388000941059	
1073600000	-6.76345952648525	-56.8239780079424	-31.1259479873159	98.3096379329229	-31.176100089116	98.1568707802792	-6.22135530333044	-61.5294278410086	
1074400000	-6.76031896281582	-56.9111300819847	-31.0725689172244	94.9249264282128	-31.118469765575	94.7666167394756	-6.21882045770429	-61.6136723681551	
1075200000	-6.75806219904551	-56.9974244620265	-31.0066735860632	91.5267214640486	-31.0570546205221	91.3585672599313	-6.21665833095132	-61.6875229131681	
1076000000	-6.75581024311871	-57.0863683364762	-30.9381304498664	88.0654571972123	-30.9879494508068	87.9152276570349	-6.21548120362197	-61.7599541907934	
1076800000	-6.75371544198792	-57.172848890015	-30.8630275419034	84.5880104360632	-30.9177511981537	84.4339208704212	-6.21496481277172	-61.8355898780061	
1077600000	-6.75173461788805	-57.2590622295312	-30.7871802464173	81.0342142099413	-30.8429240715992	80.9034003955002	-6.21567012280729	-61.9143088481877	
1078400000	-6.74980194602142	-57.3447694181655	-30.7047744533408	77.4124354235206	-30.7677318202398	77.3205237462512	-6.21769040872594	-61.9975105870475	
1079200000	-6.74814748860991	-57.4297300007167	-30.6280184492804	73.7797984343114	-30.6952355168051	73.7047657341299	-6.22142916159731	-62.0893541068026	
1080000000	-6.74644978496012	-57.5159402987751	-30.5481535685052	70.0716284902849	-30.6205757195535	70.0234288256555	-6.22656522092223	-62.1894879253117	
1080800000	-6.74502792131934	-57.6038131452291	-30.4736612971067	66.3602639505329	-30.5465861765604	66.3303527082147	-6.23249906921273	-62.3022852700845	
1081600000	-6.74436489578471	-57.6902160860858	-30.4057099694234	62.6005120503118	-30.4752358475687	62.6003752981171	-6.23900821162935	-62.4247086300312	
1082400000	-6.74435461142226	-57.7784621829878	-30.3355571689728	58.8189312792598	-30.4039456851679	58.8457613844401	-6.24495927320813	-62.5589414944373	
1083200000	-6.74488331818029	-57.8644356525414	-30.2721114063261	55.0219708970782	-30.3374636350441	55.0532617988898	-6.25015085071098	-62.7013168590427	
1084000000	-6.74579959460043	-57.9487311898394	-30.2077347538353	51.2068822194926	-30.2731708676055	51.2310340213625	-6.25422480193211	-62.8515840796416	
1084800000	-6.74695090941222	-58.0302837210849	-30.1464654823672	47.3691927210244	-30.2105376638696	47.3764672011069	-6.25719025665863	-63.0022227453432	
1085600000	-6.74835780679532	-58.1088605197786	-30.0890660564459	43.4934091236494	-30.151755471419	43.4824700851612	-6.25869944338259	-63.1542335162792	
1086400000	-6.75004866019762	-58.1872696805271	-30.0388511822612	39.5898400186171	-30.1008938052677	39.5763001025636	-6.25869075720055	-63.3051899142684	
1087200000	-6.75214931236639	-58.2655087441506	-29.9932877089872	35.6971982087546	-30.0547977092012	35.6727817578314	-6.2568363129692	-63.4512046466554	
1088000000	-6.75396135531518	-58.343250379386	-29.951149064623	31.8088552552157	-30.0125454846713	31.7754785090008	-6.25434913677889	-63.5892859958651	
1088800000	-6.7558001496138	-58.4148506261934	-29.91111572062	27.9272388838241	-29.9750603482046	27.9016812746657	-6.25129262131545	-63.7174934469628	
1089600000	-6.75797325552525	-58.4810087706514	-29.8724613699771	24.0417715552414	-29.9341457338657	23.9981437081111	-6.24788568037262	-63.8364825633401	
1090400000	-6.76050812585414	-58.5454099460701	-29.8365215304032	20.1466639051958	-29.8993421186005	20.1063750111618	-6.24537489645777	-63.9456635748817	
1091200000	-6.76288474280547	-58.6061988861289	-29.800253511952	16.2319074860403	-29.8616951233774	16.1982357134731	-6.243261542171	-64.0458672873396	
1092000000	-6.76476050472	-58.6702924536616	-29.7696419471843	12.3002164503855	-29.8291236311564	12.2702339591735	-6.24348741543247	-64.1409923281808	
1092800000	-6.76589972660084	-58.735168816085	-29.7423321067834	8.37550016096765	-29.8005701363629	8.35172676738597	-6.24493664501112	-64.2344315070686	
1093600000	-6.76679307470651	-58.8021242382247	-29.7166677617992	4.4352563522807	-29.7740895863163	4.43033458379273	-6.24717779736026	-64.3212572503275	
1094400000	-6.76774193171378	-58.871118135402	-29.6943033612181	0.48492201398625	-29.7520786827589	0.494395418734882	-6.25027188332368	-64.4080052890148	
1095200000	-6.76910331416514	-58.9421461885216	-29.6783850087544	-3.43109843265682	-29.7325770015815	-3.42613948750829	-6.25553390623279	-64.4900899382058	
1096000000	-6.77104873660402	-59.0121458669003	-29.6647423977735	-7.33934938716123	-29.7189329192579	-7.33519964318572	-6.26243087291433	-64.5840590858149	
1096800000	-6.77339258206907	-59.080670478371	-29.6552395508042	-11.23346947661	-29.7036368055396	-11.2434035940783	-6.26966921224192	-64.6886837511604	
1097600000	-6.77611631622093	-59.1472720779187	-29.6450274031483	-15.1121285524757	-29.6898238246684	-15.1383296098811	-6.27713308226246	-64.8028821021925	
1098400000	-6.77859500888303	-59.2119417647625	-29.6353018770279	-18.9700597427309	-29.6763039500707	-19.0156881358065	-6.28399825379102	-64.9226359781862	
1099200000	-6.78092218027066	-59.2751917321775	-29.624692272982	-22.8210775870554	-29.6648796728483	-22.8858872918895	-6.29040545766161	-65.0515050509793	
1100000000	-6.78299044796565	-59.3378823518928	-29.612027049731	-26.6701589195841	-29.6543150881419	-26.7608455667083	-6.29550478334991	-65.1886744044643	
