!Keysight Technologies N9915A: A.10.33
!Date: Tuesday, 12 May 2020 14:05:18
!Timezone: (UTC+08:00) Perth
!Model: N9915A
!Serial: MY53102697
!GPS Latitude: 
!GPS Longitude: 
!GPS TimeStamp: 0001-01-01 00:00:00Z
!GPS Seconds Since Last Read: 0
!CHECKSUM:0824710176
!Correction: S11(ON U)S21(ON U)S12(ON U)S22(ON U)
!S2P File: Measurements:S11,S21,S12,S22:
# Hz S DB R 50
1000000000	-6.71129019047272	-46.3187303370546	-31.7941037995552	20.9304540540036	-31.9093548304625	17.2674059582748	-5.77508791290646	-53.6275419929411	
1000800000	-6.71086887031143	-46.4244632558554	-31.774249368352	17.1642125193656	-31.8879932662328	14.0411086006118	-5.78269386977642	-53.1823401776517	
1001600000	-6.71088430838807	-46.4947214299244	-31.7559796830774	13.2163509694463	-31.8677900877001	11.0527027517566	-5.79006893313412	-52.5647453329676	
1002400000	-6.71150665574688	-46.6599215396165	-31.7374215632645	9.66633826920666	-31.8492547302889	7.43592221740198	-5.79671736381766	-52.0225933400341	
1003200000	-6.71306505767855	-46.7987891991295	-31.7184846283593	5.81340694782497	-31.8328686066168	3.78690332457297	-5.80246723929392	-51.6015465863744	
1004000000	-6.71539045323587	-46.9698696230208	-31.7026935381291	1.87302399173137	-31.8203267959246	0.149535383720598	-5.80723261936362	-51.5270652138838	
1004800000	-6.7184787451582	-47.1930778956781	-31.688189764197	-2.36019877712426	-31.8088847514271	-3.76280403356894	-5.81121374954356	-51.7524718989704	
1005600000	-6.72136938262717	-47.4621342260598	-31.6753886938931	-6.79775595422131	-31.798878704585	-7.9251006289914	-5.81449710080591	-52.2731970118992	
1006400000	-6.7240193249326	-47.768735481712	-31.662092693289	-11.1010322833557	-31.7903431941091	-12.0932717134188	-5.81687334636984	-52.887716808391	
1007200000	-6.72683323175796	-48.1120253820402	-31.6492391944389	-15.3820117849021	-31.7837593032289	-16.4266678770592	-5.81856804215507	-53.430558189664	
1008000000	-6.7292999425153	-48.4463765394004	-31.6393206651919	-19.7227715955762	-31.7756087251038	-20.8519088292812	-5.81996785185509	-53.7848649597537	
1008800000	-6.73197031367864	-48.7648874529481	-31.6292394730752	-24.1935757618544	-31.7691396919389	-25.2166569595996	-5.82158627552504	-53.9112055689163	
1009600000	-6.7346161568438	-49.0297641772984	-31.6188307744735	-28.4595680808699	-31.7620877141559	-29.4984397385914	-5.8240757006407	-53.8601589072995	
1010400000	-6.73714537169409	-49.2401832242228	-31.6105679508495	-32.6090148644212	-31.7558354820498	-33.7936067932029	-5.82766266661185	-53.6983043820645	
1011200000	-6.73918370852742	-49.4002840932788	-31.6042971847129	-36.4102518817332	-31.7509805728124	-37.7869501559339	-5.83220223167403	-53.5018043659112	
1012000000	-6.74073745603079	-49.5336758941172	-31.596611012943	-40.1280643892065	-31.7469305323791	-41.4198365143893	-5.8381232484237	-53.3537821427924	
1012800000	-6.74215870055893	-49.6692324284036	-31.5923652088458	-43.3485141778047	-31.7448798700477	-44.5421323895518	-5.84487840753351	-53.3088264165009	
1013600000	-6.74367428114717	-49.8043950884242	-31.5886998741877	-46.2701283324102	-31.7434194432582	-47.3182572076581	-5.85316492080408	-53.3609752861043	
1014400000	-6.74515382082361	-49.9913852778737	-31.5842246996469	-49.1538072698438	-31.7446796440552	-49.976764039224	-5.86256664336887	-53.490620593701	
1015200000	-6.7468920891911	-50.2230273141465	-31.5863540939085	-52.1733364554704	-31.7479189453442	-52.7918463740188	-5.87256525293622	-53.6644283865616	
1016000000	-6.74881343353439	-50.4374920991793	-31.5919551030322	-55.0105125787318	-31.756339651317	-55.5882574937028	-5.88267209383484	-53.7963583749676	
1016800000	-6.7508800166211	-50.6386732290866	-31.59765330351	-57.7153060512088	-31.7626629644045	-58.36894650836	-5.89300004325667	-53.8732778383593	
1017600000	-6.75316793961469	-50.8446736456246	-31.603109981867	-60.5320035564072	-31.7720082717657	-61.2012862446022	-5.90284603258123	-53.8969851979475	
1018400000	-6.75583482401996	-51.0605541964149	-31.6116486130614	-63.4711709398031	-31.7798222442556	-64.1257496417252	-5.91194616786055	-53.8407557850268	
1019200000	-6.7589051768414	-51.2810918766704	-31.6171328580245	-66.4337772509408	-31.7841536742576	-67.210884934765	-5.92032748470079	-53.7740032890816	
1020000000	-6.76193439888012	-51.4856138644807	-31.6206600270223	-69.4155533802299	-31.7883541948631	-70.2739856212581	-5.92758875450283	-53.7393027398171	
1020800000	-6.76520495083049	-51.6496283353711	-31.6229083342383	-72.4646494146044	-31.7886378109398	-73.4130228529257	-5.93420528649249	-53.75798806163	
1021600000	-6.76817707979971	-51.7482633923872	-31.6239805037528	-75.590087775294	-31.7903662132446	-76.5624493508581	-5.93977478657548	-53.8670725139612	
1022400000	-6.77145572792193	-51.8108826901545	-31.6253538291125	-78.7380047091662	-31.7907577426659	-79.8137456102255	-5.94476761041396	-54.0555497866895	
1023200000	-6.77504896827906	-51.863347501063	-31.6265592713383	-81.9437466745811	-31.7909558766453	-83.0148512939841	-5.94926208280647	-54.303593732409	
1024000000	-6.77856818920631	-51.9351707215508	-31.6260133159041	-85.0892560236442	-31.790266619169	-86.1402036168672	-5.95371029321538	-54.5531869115528	
1024800000	-6.78221110947125	-52.0271568304293	-31.6293265988335	-88.2693474059428	-31.7902567484769	-89.2328222008399	-5.95850589670844	-54.7642376980804	
1025600000	-6.78602376511347	-52.1043245849083	-31.6354946322304	-91.4596761331743	-31.7959152013955	-92.3907429416711	-5.96279364442015	-54.9326876300387	
1026400000	-6.78986498171416	-52.1892828729034	-31.6448324576082	-94.7140294125945	-31.8053932072565	-95.6538946068758	-5.96747287863142	-55.0457847627667	
1027200000	-6.79379785248023	-52.278496199999	-31.6571735408982	-98.117661992599	-31.8171074771787	-98.9981803897817	-5.97320184609012	-55.1117772532946	
1028000000	-6.79760021626743	-52.3620895549852	-31.679420319117	-101.63737260678	-31.8398528386322	-102.507430796119	-5.98018183218243	-55.1546684978853	
1028800000	-6.8012310743154	-52.4430567948786	-31.7083138397989	-105.298408896434	-31.8679985795016	-106.130644810014	-5.98837361667117	-55.2115942932084	
1029600000	-6.80467071530154	-52.5175127883705	-31.7426374849415	-109.02759364558	-31.9001164682617	-109.864343772729	-5.99727044887622	-55.3161357594404	
1030400000	-6.80800985934073	-52.593824164981	-31.7747487267176	-112.846647890687	-31.9326853122602	-113.701736462861	-6.00675621957992	-55.4791398129199	
1031200000	-6.81111469237262	-52.684599041363	-31.8084175110325	-116.69925832196	-31.9692900275133	-117.658440275594	-6.01708085957978	-55.6820370342707	
1032000000	-6.81403942448903	-52.761743409571	-31.8370168241356	-120.655631862808	-31.9979206466403	-121.677732915543	-6.02815495841912	-55.9004727985464	
1032800000	-6.81661487901577	-52.8260475457115	-31.8591066584228	-124.596567542524	-32.0202056534551	-125.665667990625	-6.03917259345939	-56.1096753257113	
1033600000	-6.81889145851161	-52.8755086031536	-31.8759673394477	-128.560415839605	-32.0397688507817	-129.65694620519	-6.05018719851801	-56.2905579071294	
1034400000	-6.82058537486418	-52.8926673361178	-31.89080995371	-132.550224636654	-32.0584859185776	-133.637615384375	-6.06073402286466	-56.4256211380073	
1035200000	-6.82198669890034	-52.8995101624905	-31.9063068507391	-136.564647344508	-32.072831000419	-137.608337162899	-6.07043599667937	-56.4919351152514	
1036000000	-6.82300694932087	-52.9067138866292	-31.9234732780937	-140.574346175096	-32.0912133219565	-141.599997181826	-6.07937790324441	-56.5525053266771	
1036800000	-6.823645262251	-52.9304778260106	-31.9380407082248	-144.603191901334	-32.1077784756347	-145.59704431069	-6.08691587064063	-56.6250520064039	
1037600000	-6.82404277476681	-52.9639561059065	-31.9524062614423	-148.639703138621	-32.1208189743159	-149.605211807596	-6.09307674674579	-56.7284305500685	
1038400000	-6.82414020724835	-53.0103080750031	-31.9623789240396	-152.592551054034	-32.1326737115566	-153.49591312012	-6.09792648130888	-56.867252892228	
1039200000	-6.82374623334139	-53.0609313919167	-31.9712331771901	-156.470460713434	-32.1425403475016	-157.266875750955	-6.10169032586452	-57.0438744693767	
1040000000	-6.8228873427616	-53.1103845455692	-31.9783294885803	-160.256884243056	-32.149921385079	-161.023134413886	-6.10463867692372	-57.2522209780368	
1040800000	-6.82146912602127	-53.1553681088362	-31.9860565913546	-164.035649896521	-32.1570208951797	-164.742459035863	-6.10716556317141	-57.452829715211	
1041600000	-6.81966811736216	-53.2050618050953	-31.9926264962096	-167.864684510594	-32.167034974068	-168.552857491553	-6.10958884027625	-57.6225360344372	
1042400000	-6.8173639722657	-53.2589631977171	-31.9998739737564	-171.801443370838	-32.178072324731	-172.430594058678	-6.11213670187317	-57.7405201751879	
1043200000	-6.81473931558848	-53.310275194521	-32.0088133449522	-175.820689443321	-32.1905555402696	-176.405825020731	-6.11522083412089	-57.8139729614275	
1044000000	-6.8117154943645	-53.3549495524364	-32.0172559108489	-179.856660265596	-32.1996555916504	179.6223647543	-6.11907246644016	-57.8440546775637	
1044800000	-6.80822185780501	-53.3915757731713	-32.0249792682495	176.302201075154	-32.2078839739317	175.790077779496	-6.12368772378655	-57.862042711112	
1045600000	-6.80405451888956	-53.4335870984827	-32.0299311931124	172.738800138158	-32.2116807694171	172.257512978824	-6.12923895988059	-57.9047227935667	
1046400000	-6.80017453190148	-53.472498517442	-32.0323971592136	169.36334697986	-32.2133091887972	168.943028994788	-6.13575800638734	-57.9754695733202	
1047200000	-6.79660776004644	-53.5092803086125	-32.0334135083739	165.991320819286	-32.2148561535034	165.631891461829	-6.14338848189158	-58.0744445271831	
1048000000	-6.79300414958871	-53.5510857071812	-32.0338602982985	162.608436390183	-32.21479015221	162.25868237737	-6.15178673168095	-58.2009749172936	
1048800000	-6.78985099553866	-53.5976404847225	-32.0320843443933	159.25412532126	-32.2152164806396	158.915589819199	-6.16092894284752	-58.3385921331697	
1049600000	-6.78688357382811	-53.6486290073618	-32.0319784610152	155.899149122105	-32.2127223388654	155.614853738591	-6.17055575127131	-58.4659737698872	
1050400000	-6.78366921017174	-53.7053576554732	-32.0296233565791	152.502219291886	-32.2121461661907	152.244444933994	-6.18009670761161	-58.5682690777618	
1051200000	-6.78051826277425	-53.7704749014855	-32.0279110160588	149.099504688929	-32.2094255129012	148.857522092374	-6.18877831251076	-58.6437705775277	
1052000000	-6.77736873363194	-53.8461662160332	-32.0230134010543	145.743295730948	-32.2059661184083	145.512447475235	-6.19659035606921	-58.6918766881681	
1052800000	-6.77412714756496	-53.9378268054256	-32.016908202641	142.471922849649	-32.1993535698261	142.227491903157	-6.20397080685441	-58.7272554332257	
1053600000	-6.77095996504916	-54.0429179850758	-32.0070854453753	139.14828975745	-32.1931622506809	138.946439962837	-6.21042869105152	-58.7689096228531	
1054400000	-6.76764459068029	-54.1650437094505	-31.9978378454456	135.839146789686	-32.1851920590253	135.645180864454	-6.2162453440094	-58.8327431854686	
1055200000	-6.76446436329948	-54.3017223710549	-31.9852158021706	132.486140061034	-32.1736280547268	132.329964399037	-6.22058157280727	-58.9369762170252	
1056000000	-6.76114295426442	-54.4333802882428	-31.9723531692261	129.168110577502	-32.1619074117554	129.01016177408	-6.22406673206102	-59.0802283687494	
1056800000	-6.75764850545933	-54.5646146013887	-31.958899214269	125.836503203526	-32.1510587936444	125.676956081334	-6.22716014619827	-59.2287449143788	
1057600000	-6.75428481372302	-54.6977209702236	-31.9486861639533	122.476588620594	-32.1410154568098	122.30835077316	-6.22978609068975	-59.3709561213148	
1058400000	-6.75127484591051	-54.834371800532	-31.9389788158348	119.02081473353	-32.1343052403765	118.864868730436	-6.23235445964903	-59.4809880635787	
1059200000	-6.74869177366943	-54.9748235331352	-31.9323827594111	115.512592984893	-32.128835607297	115.357218436528	-6.23483261400567	-59.5609548322337	
1060000000	-6.74629607220232	-55.1131433410075	-31.9277996590473	111.981126064979	-32.1269795267454	111.829873037388	-6.23751826824761	-59.6111523127716	
1060800000	-6.74402348678386	-55.2362892355036	-31.9270138722641	108.436085109835	-32.1272608893621	108.315814437271	-6.24059170517113	-59.6694787470242	
1061600000	-6.74181777645078	-55.3578300871768	-31.9264827280233	104.917796620738	-32.1280347580485	104.837745916253	-6.24465596574225	-59.7256896360929	
1062400000	-6.73938118949359	-55.4770844332693	-31.9260178371966	101.408576672998	-32.1304037744414	101.358714047807	-6.24957171356498	-59.7866923877446	
1063200000	-6.73699733466002	-55.5956947393602	-31.926145647468	97.9445022097077	-32.1316830384301	97.911084042611	-6.25484046028771	-59.8565594983657	
1064000000	-6.73462983243027	-55.7121478853729	-31.9261283409765	94.4827079957381	-32.129255306405	94.4616093552575	-6.26029604781614	-59.9351365297701	
1064800000	-6.7319963475604	-55.824128388391	-31.9223945195082	91.022772041329	-32.1275885714369	91.0419920573515	-6.26507234955493	-60.0230693682618	
1065600000	-6.72892373082516	-55.9330547271172	-31.9165190976929	87.5874076667591	-32.1196088823411	87.6299564719127	-6.26893384709619	-60.1249744842195	
1066400000	-6.72587728754924	-56.0428983763946	-31.9085774331847	84.1508527090093	-32.1083583646325	84.217530278219	-6.27168696447493	-60.2370238424915	
1067200000	-6.72309718867737	-56.1514167654522	-31.9015665050091	80.7201417169018	-32.0967314983453	80.8036543133136	-6.27255810747289	-60.3587472103522	
1068000000	-6.72032151082185	-56.2602166580572	-31.8934511685107	77.3024358979727	-32.0863118785919	77.3912930284496	-6.27240817341561	-60.4829938658765	
1068800000	-6.71774665497652	-56.3697080676587	-31.882637609076	73.8845722780767	-32.0755235491082	73.977913953763	-6.27114460355592	-60.6121201043522	
1069600000	-6.71532062180146	-56.4801391339407	-31.872868348922	70.4711809304999	-32.0611513051919	70.5601890862563	-6.26844163390709	-60.7405927416587	
1070400000	-6.71309591259986	-56.5939818226771	-31.8609691394933	67.0722423402338	-32.0447631424909	67.1729781789566	-6.26400802625233	-60.8596253906751	
1071200000	-6.71120771257293	-56.7114843729333	-31.8469488114139	63.6818683270259	-32.0308427191714	63.7918121750009	-6.25841629604593	-60.9676462438911	
1072000000	-6.70935194169902	-56.826306584243	-31.8280068432151	60.3130886569375	-32.0115596978652	60.4066659040375	-6.25214023115421	-61.0644252018364	
1072800000	-6.70792757504668	-56.9388768080128	-31.8063617387288	56.9542290847078	-31.9906580005181	57.0314643673781	-6.24631291525425	-61.1489319205863	
1073600000	-6.70646870238287	-57.050089512947	-31.782770075098	53.5811671020594	-31.9672733142694	53.6543735084705	-6.24093157669317	-61.2295286431985	
1074400000	-6.70545107713815	-57.1592157664211	-31.7547693254222	50.2071671353813	-31.9397041076101	50.2852935669342	-6.23556992648555	-61.3035766218859	
1075200000	-6.70545228869459	-57.2674880540131	-31.7230090972861	46.8444486436969	-31.9093021749083	46.9244488262559	-6.23050599283489	-61.3695805187831	
1076000000	-6.70539540648754	-57.3776090416066	-31.6876957350125	43.4622527370713	-31.875242716076	43.5454386240233	-6.22619261459297	-61.4364155685623	
1076800000	-6.70565686868459	-57.4866694302607	-31.6497778447642	40.0779158198061	-31.836958792326	40.1727283290914	-6.22244377362708	-61.5072283261718	
1077600000	-6.70622377117861	-57.5950720207713	-31.6092428900137	36.6905231675675	-31.7951308841827	36.7905248613558	-6.21968348122286	-61.5842787153036	
1078400000	-6.70723487154959	-57.7017533470873	-31.5662818268845	33.2906144684895	-31.7533617621908	33.3870780226597	-6.21862725676018	-61.6670533392517	
1079200000	-6.70868897897439	-57.8094414501727	-31.520355223212	29.8641481642388	-31.7060984596699	29.9803919864687	-6.21911369912863	-61.7592720571895	
1080000000	-6.71081751428366	-57.9182230956165	-31.4709607874914	26.4302247971189	-31.6585509669775	26.5434106174004	-6.22108884279441	-61.8634949420718	
1080800000	-6.71373794040363	-58.0250360378576	-31.420703223482	22.9972918486661	-31.6081786287384	23.1129549724413	-6.22409725495792	-61.9783699385421	
1081600000	-6.71763632362362	-58.1303490271193	-31.3709081567415	19.5144074646022	-31.5544303470475	19.6715088134008	-6.22750265757505	-62.1048360745388	
1082400000	-6.72269744656176	-58.2334650986166	-31.3183410974607	16.0277516267147	-31.5022300428519	16.2170663445699	-6.23037337894018	-62.2430336039915	
1083200000	-6.72878576825246	-58.3301441969523	-31.2617936433204	12.5132131971583	-31.4467237849914	12.7233242484356	-6.23250796845269	-62.3916200952039	
1084000000	-6.73541229615438	-58.4222683515116	-31.2048546389308	9.00299668665588	-31.3854325392089	9.21023873915061	-6.23325457018149	-62.5463084625815	
1084800000	-6.74246298828189	-58.5076227311907	-31.1467697224751	5.46112149356975	-31.319629733141	5.67664248274752	-6.23297853927431	-62.7036499224904	
1085600000	-6.749789365085	-58.585613329338	-31.0864231256863	1.89329475010351	-31.2532983132118	2.10458245820132	-6.23102506265643	-62.8652428326062	
1086400000	-6.75745740188897	-58.6591365628355	-31.0282693623468	-1.72504557929796	-31.1895419803117	-1.51955551357463	-6.22745925770747	-63.0245787532655	
1087200000	-6.76520948680742	-58.7275342600511	-30.9722610449378	-5.36232424844178	-31.1257992664897	-5.14780587163835	-6.22236122376364	-63.1810991008878	
1088000000	-6.7725089196862	-58.7907867486967	-30.9143150950998	-9.02054424659667	-31.0667128907279	-8.82706433889342	-6.21620361178104	-63.3338922692433	
1088800000	-6.7795726934316	-58.8460870790078	-30.860476289702	-12.7066352238694	-31.0107663953611	-12.5133376319679	-6.20963991876413	-63.4802012353759	
1089600000	-6.78659610099833	-58.8942682767876	-30.808535307966	-16.3700662463298	-30.9548748006338	-16.2012495631589	-6.20351447326449	-63.6177037437387	
1090400000	-6.79343415101477	-58.9380720511817	-30.7540321456832	-20.0589348120417	-30.9012895609658	-19.8930187877219	-6.19839874867152	-63.7464533427746	
1091200000	-6.79966004873108	-58.9772981719452	-30.6981098834716	-23.7277155917839	-30.8454599220717	-23.5987408379933	-6.19422152793001	-63.8667839069644	
1092000000	-6.80490835697753	-59.0184741804008	-30.6478179771049	-27.4566779497814	-30.792471425712	-27.3273670116843	-6.19235565901349	-63.9816729596932	
1092800000	-6.80914761210292	-59.0604768335532	-30.5951785376055	-31.2081253001451	-30.7418908754186	-31.081095701654	-6.19202922019701	-64.094691201263	
1093600000	-6.81284947983432	-59.1040872581876	-30.5462285222379	-34.9846144765121	-30.6942228419562	-34.85602589687	-6.19271779939144	-64.2028969756252	
1094400000	-6.81620326313868	-59.149067875058	-30.5014211492563	-38.7887483589771	-30.6473832269786	-38.6292279163297	-6.19445987924145	-64.3118936001481	
1095200000	-6.81961941182446	-59.1961300739911	-30.4574647491542	-42.5852643183372	-30.605614948064	-42.4178502645246	-6.19861636667991	-64.416306784678	
1096000000	-6.82343176238824	-59.242204462873	-30.41914113837	-46.3838249916627	-30.5665398591783	-46.2080816142036	-6.20444709171879	-64.5328089910575	
1096800000	-6.8273430645525	-59.2869827806999	-30.3831034616501	-50.1868157544983	-30.5302595434629	-49.9997956908725	-6.21081390673779	-64.6645265641434	
1097600000	-6.83110894650153	-59.3304415981159	-30.3476677712492	-53.9805027514511	-30.4952587439233	-53.7901613298389	-6.21773991908703	-64.8052820484066	
1098400000	-6.83457796565765	-59.3729080661507	-30.3132696140809	-57.7809890212184	-30.4595607428855	-57.5659019172746	-6.22438173255344	-64.9505231514412	
1099200000	-6.83797625025572	-59.4152651440766	-30.2810284547968	-61.5737149196453	-30.4274827634987	-61.3483324315118	-6.23060934190207	-65.1061799064222	
1100000000	-6.84064607530935	-59.458323450243	-30.2490936306438	-65.3683081962291	-30.3940499580829	-65.1310008812359	-6.23577587558158	-65.2676482698212	
